;$FILEVERSION=1.1
;$STARTTIME=46168.6396648727
;
;   Start time: 26/05/2026 15:21:07.045.0
;   Generated by PCAN-View v5.3.3.958
;
;   Message Number
;   |         Time Offset (ms)
;   |         |        Type
;   |         |        |        ID (hex)
;   |         |        |        |     Data Length
;   |         |        |        |     |   Data Bytes (hex) ...
;   |         |        |        |     |   |
;---+--   ----+----  --+--  ----+---  +  -+ -- -- -- -- -- -- --
     1)       15.6  Rx      0610  8  00 00 00 00 00 00 00 00 
     2)       15.6  Rx  1839F380  8  01 19 20 1C 08 07 00 A6 
     3)       19.6  Rx      0626  8  00 00 FE 7F 00 00 00 00 
     4)       46.6  Rx      0600  8  0A 64 01 00 00 40 00 00 
     5)       50.5  Rx      0618  8  00 01 00 64 AD 13 00 00 
     6)       53.6  Rx      0626  8  00 00 FE 7F 00 00 00 00 
     7)       87.6  Rx      0626  8  00 00 FE 7F 00 00 00 00 
     8)      115.6  Rx  1839F380  8  01 19 20 1C 08 07 00 A6 
     9)      116.5  Rx      0610  8  00 00 00 00 00 00 00 00 
    10)      121.7  Rx      0626  8  00 00 FE 7F 00 00 00 00 
    11)      148.6  Rx      0600  8  0A 64 01 00 00 40 00 00 
    12)      151.6  Rx      0618  8  00 01 00 64 AB 13 00 00 
    13)      155.6  Rx      0626  8  00 00 FE 7F 00 00 00 00 
    14)      189.6  Rx      0626  8  00 00 FE 7F 00 00 00 00 
    15)      215.6  Rx  1839F380  8  01 19 20 1C 08 07 00 A6 
    16)      217.6  Rx      0610  8  00 00 00 00 00 00 00 00 
    17)      223.6  Rx      0626  8  00 00 FE 7F 00 00 00 00 
    18)      250.6  Rx      0600  8  0A 64 01 00 00 40 00 00 
    19)      252.6  Rx      0618  8  00 01 00 64 AC 13 00 00 
    20)      257.6  Rx      0626  8  00 00 FE 7F 00 00 00 00 
    21)      291.6  Rx      0626  8  00 00 FE 7F 00 00 00 00 
    22)      293.6  Rx      0625  8  00 00 00 00 32 00 00 00 
    23)      315.6  Rx  1839F380  8  01 19 20 1C 08 07 00 A6 
    24)      318.6  Rx      0610  8  00 00 00 00 00 00 00 00 
    25)      325.6  Rx      0626  8  00 00 FE 7F 00 00 00 00 
    26)      347.6  Rx      0620  8  0A 19 00 00 81 02 00 00 
    27)      352.6  Rx      0600  8  0A 64 01 00 00 40 00 00 
    28)      353.6  Rx      0618  8  00 01 00 64 AC 13 00 00 
    29)      359.6  Rx      0626  8  00 00 FE 7F 00 00 00 00 
    30)      389.7  Rx      0037  3  00 00 00 
    31)      390.2  Rx      0030  8  07 40 00 04 00 00 00 32 
    32)      393.6  Rx      0626  8  00 00 FE 7F 00 00 00 00 
    33)      415.6  Rx  1839F380  8  01 19 20 1C 08 07 00 A6 
    34)      419.6  Rx      0610  8  00 00 00 00 00 00 00 00 
    35)      427.6  Rx      0626  8  00 00 FE 7F 00 00 00 00 
    36)      454.6  Rx      0600  8  0A 64 01 00 00 40 00 00 
    37)      454.7  Rx      0618  8  00 01 00 64 AD 13 00 00 
    38)      461.6  Rx      0626  8  00 00 FE 7F 00 00 00 00 
    39)      478.6  Rx      0628  8  0A 04 6F 00 20 00 00 00 
    40)      495.6  Rx      0626  8  00 00 FE 7F 00 00 00 00 
    41)      515.6  Rx  1839F380  8  01 19 20 1C 08 07 00 A6 
    42)      515.6  Rx      0100  8  2C 46 FB 05 12 C0 AD A3 
    43)      518.6  Rx      0101  8  13 88 00 17 00 60 8B 52 
    44)      520.6  Rx      0610  8  00 00 00 00 00 00 00 00 
    45)      521.6  Rx      0102  8  00 00 00 00 00 00 1B 00 
    46)      524.6  Rx      0104  4  1C 03 71 49 
    47)      527.6  Rx      0105  8  0B B0 0B BA 0B A6 31 E4 
    48)      529.6  Rx      0626  8  00 00 FE 7F 00 00 00 00 
    49)      530.6  Rx      0107  8  0F CB 0F D2 0F CE 7D 82 
    50)      533.6  Rx      0108  8  0F D5 0F D1 0F CD 7E 9A 
    51)      536.6  Rx      0109  8  0F D4 0F D0 0F CC BE 37 
    52)      539.6  Rx      010A  8  0F D3 0F CF 0F CB 7A F2 
    53)      542.6  Rx      010B  8  0F D2 0F CE 0F D5 72 1E 
    54)      545.6  Rx      010C  8  0F D1 0F CD 0F D4 B2 6B 
    55)      548.6  Rx      010D  8  0F D0 0F CC 0F D3 70 46 
    56)      551.6  Rx      010E  8  0F CF 0F CB 0F D2 B3 A3 
    57)      554.6  Rx      010F  8  0F CE 0F D5 0F D1 74 BE 
    58)      555.5  Rx      0618  8  00 01 00 64 AD 13 00 00 
    59)      556.6  Rx      0600  8  0A 64 01 00 00 40 00 00 
    60)      557.6  Rx      0110  8  0F CD 00 00 00 00 34 2D 
    61)      563.6  Rx      0626  8  00 00 FE 7F 00 00 00 00 
    62)      597.6  Rx      0626  8  00 00 FE 7F 00 00 00 00 
    63)      615.6  Rx  1839F380  8  01 19 20 1C 08 07 00 A6 
    64)      621.6  Rx      0610  8  00 00 00 00 00 00 00 00 
    65)      631.6  Rx      0626  8  00 00 FE 7F 00 00 00 00 
    66)      656.6  Rx      0618  8  00 01 00 64 AB 13 00 00 
    67)      658.6  Rx      0600  8  0A 64 01 00 00 40 00 00 
    68)      665.6  Rx      0626  8  00 00 FE 7F 00 00 00 00 
    69)      699.6  Rx      0626  8  00 00 FE 7F 00 00 00 00 
    70)      715.6  Rx  1839F380  8  01 19 20 1C 08 07 00 A6 
    71)      722.5  Rx      0610  8  00 00 00 00 00 00 00 00 
    72)      733.6  Rx      0626  8  00 00 FE 7F 00 00 00 00 
    73)      757.6  Rx      0618  8  00 01 00 64 AC 13 00 00 
    74)      760.6  Rx      0600  8  0A 64 01 00 00 40 00 00 
    75)      767.5  Rx      0626  8  00 00 FE 7F 00 00 00 00 
    76)      801.6  Rx      0626  8  00 00 FE 7F 00 00 00 00 
    77)      815.6  Rx  1839F380  8  01 19 20 1C 08 07 00 A6 
    78)      823.5  Rx      0610  8  00 00 00 00 00 00 00 00 
    79)      835.6  Rx      0626  8  00 00 FE 7F 00 00 00 00 
    80)      858.6  Rx      0618  8  00 01 00 64 AC 13 00 00 
    81)      862.5  Rx      0600  8  0A 64 01 00 00 40 00 00 
    82)      869.6  Rx      0626  8  00 00 FE 7F 00 00 00 00 
    83)      903.6  Rx      0626  8  00 00 FE 7F 00 00 00 00 
    84)      915.6  Rx  1839F380  8  01 19 20 1C 08 07 00 A6 
    85)      924.6  Rx      0610  8  00 00 00 00 00 00 00 00 
    86)      937.6  Rx      0626  8  00 00 FE 7F 00 00 00 00 
    87)      959.6  Rx      0618  8  00 01 00 64 AD 13 00 00 
    88)      964.6  Rx      0600  8  0A 64 01 00 00 40 00 00 
    89)      971.6  Rx      0626  8  00 00 FE 7F 00 00 00 00 
    90)     1005.6  Rx      0626  8  00 00 FE 7F 00 00 00 00 
    91)     1015.6  Rx  1839F380  8  01 19 20 1C 08 07 00 A6 
    92)     1025.6  Rx      0610  8  00 00 00 00 00 00 00 00 
    93)     1039.6  Rx      0626  8  00 00 FE 7F 00 00 00 00 
    94)     1060.6  Rx      0618  8  00 01 00 64 AB 13 00 00 
    95)     1066.6  Rx      0600  8  0A 64 01 00 00 40 00 00 
    96)     1073.6  Rx      0626  8  00 00 FE 7F 00 00 00 00 
    97)     1107.6  Rx      0626  8  00 00 FE 7F 00 00 00 00 
    98)     1115.6  Rx  1839F380  8  01 19 20 1C 08 07 00 A6 
    99)     1126.6  Rx      0610  8  00 00 00 00 00 00 00 00 
   100)     1141.6  Rx      0626  8  00 00 FE 7F 00 00 00 00 
   101)     1161.6  Rx      0618  8  00 01 00 64 AB 13 00 00 
   102)     1168.6  Rx      0600  8  0A 64 01 00 00 40 00 00 
   103)     1175.6  Rx      0626  8  00 00 FE 7F 00 00 00 00 
   104)     1182.6  Rx      0625  8  00 00 00 00 32 00 00 00 
   105)     1209.5  Rx      0626  8  00 00 FE 7F 00 00 00 00 
   106)     1215.6  Rx  1839F380  8  01 19 20 1C 08 07 00 A6 
   107)     1227.6  Rx      0610  8  00 00 00 00 00 00 00 00 
   108)     1235.6  Rx      0628  8  0A 04 6F 00 20 00 00 00 
   109)     1243.6  Rx      0626  8  00 00 FE 7F 00 00 00 00 
   110)     1262.6  Rx      0618  8  00 01 00 64 AC 13 00 00 
   111)     1270.6  Rx      0600  8  0A 64 01 00 00 40 00 00 
   112)     1277.6  Rx      0626  8  00 00 FE 7F 00 00 00 00 
   113)     1311.6  Rx      0626  8  00 00 FE 7F 00 00 00 00 
   114)     1315.6  Rx  1839F380  8  01 19 20 1C 08 07 00 A6 
   115)     1328.6  Rx      0610  8  00 00 00 00 00 00 00 00 
   116)     1345.6  Rx      0626  8  00 00 FE 7F 00 00 00 00 
   117)     1348.6  Rx      0620  8  0A 19 00 00 81 02 00 00 
   118)     1363.6  Rx      0618  8  00 01 00 64 AC 13 00 00 
   119)     1372.6  Rx      0600  8  0A 64 01 00 00 40 00 00 
   120)     1379.6  Rx      0626  8  00 00 FE 7F 00 00 00 00 
   121)     1413.6  Rx      0626  8  00 00 FE 7F 00 00 00 00 
   122)     1415.6  Rx  1839F380  8  01 19 20 1C 08 07 00 A6 
   123)     1429.6  Rx      0610  8  00 00 00 00 00 00 00 00 
   124)     1447.6  Rx      0626  8  00 00 FE 7F 00 00 00 00 
   125)     1464.6  Rx      0618  8  00 01 00 64 AB 13 00 00 
   126)     1474.6  Rx      0600  8  0A 64 01 00 00 40 00 00 
   127)     1481.6  Rx      0626  8  00 00 FE 7F 00 00 00 00 
   128)     1515.5  Rx      0626  8  00 00 FE 7F 00 00 00 00 
   129)     1515.6  Rx  1839F380  8  01 19 20 1C 08 07 00 A6 
   130)     1515.6  Rx      0100  8  2C 46 FA 74 12 C0 4A F2 
   131)     1518.6  Rx      0101  8  13 88 00 17 00 60 8B 52 
   132)     1521.6  Rx      0102  8  00 00 00 00 00 00 1B 00 
   133)     1524.6  Rx      0104  4  1C 03 71 49 
   134)     1527.6  Rx      0105  8  0B B0 0B BA 0B A6 31 E4 
   135)     1530.6  Rx      0610  8  00 00 00 00 00 00 00 00 
   136)     1530.6  Rx      0107  8  0F CB 0F D2 0F CE 7D 82 
   137)     1533.6  Rx      0108  8  0F D5 0F D1 0F CD 7E 9A 
   138)     1536.6  Rx      0109  8  0F D4 0F D0 0F CC BE 37 
   139)     1539.6  Rx      010A  8  0F D3 0F CF 0F CB 7A F2 
   140)     1542.6  Rx      010B  8  0F D2 0F CE 0F D5 72 1E 
   141)     1545.6  Rx      010C  8  0F D1 0F CD 0F D4 B2 6B 
   142)     1548.6  Rx      010D  8  0F D0 0F CC 0F D3 70 46 
   143)     1549.6  Rx      0626  8  00 00 FE 7F 00 00 00 00 
   144)     1551.6  Rx      010E  8  0F CF 0F CB 0F D2 B3 A3 
   145)     1554.6  Rx      010F  8  0F CE 0F D5 0F D1 74 BE 
   146)     1557.6  Rx      0110  8  0F CD 00 00 00 00 34 2D 
   147)     1565.6  Rx      0618  8  00 01 00 64 AB 13 00 00 
   148)     1576.6  Rx      0600  8  0A 64 01 00 00 40 00 00 
   149)     1583.6  Rx      0626  8  00 00 FE 7F 00 00 00 00 
   150)     1615.6  Rx  1839F380  8  01 19 20 1C 08 07 00 A6 
   151)     1617.6  Rx      0626  8  00 00 FE 7F 00 00 00 00 
   152)     1631.6  Rx      0610  8  00 00 00 00 00 00 00 00 
   153)     1651.5  Rx      0626  8  00 00 FE 7F 00 00 00 00 
   154)     1666.6  Rx      0618  8  00 01 00 64 AB 13 00 00 
   155)     1678.6  Rx      0600  8  0A 64 01 00 00 40 00 00 
   156)     1685.6  Rx      0626  8  00 00 FE 7F 00 00 00 00 
   157)     1715.6  Rx  1839F380  8  01 19 20 1C 08 07 00 A6 
   158)     1719.6  Rx      0626  8  00 00 FE 7F 00 00 00 00 
   159)     1732.6  Rx      0610  8  00 00 00 00 00 00 00 00 
   160)     1753.6  Rx      0626  8  00 00 FE 7F 00 00 00 00 
   161)     1767.6  Rx      0618  8  00 01 00 64 AC 13 00 00 
   162)     1780.6  Rx      0600  8  0A 64 01 00 00 40 00 00 
   163)     1787.6  Rx      0626  8  00 00 FE 7F 00 00 00 00 
   164)     1815.6  Rx  1839F380  8  01 19 20 1C 08 07 00 A6 
   165)     1821.6  Rx      0626  8  00 00 FE 7F 00 00 00 00 
   166)     1833.6  Rx      0610  8  00 00 00 00 00 00 00 00 
   167)     1855.6  Rx      0626  8  00 00 FE 7F 00 00 00 00 
   168)     1868.6  Rx      0618  8  00 01 00 64 AA 13 00 00 
   169)     1882.6  Rx      0600  8  0A 64 01 00 00 40 00 00 
   170)     1889.6  Rx      0626  8  00 00 FE 7F 00 00 00 00 
   171)     1915.6  Rx  1839F380  8  01 19 20 1C 08 07 00 A6 
   172)     1923.6  Rx      0626  8  00 00 FE 7F 00 00 00 00 
   173)     1934.6  Rx      0610  8  00 00 00 00 00 00 00 00 
   174)     1957.6  Rx      0626  8  00 00 FE 7F 00 00 00 00 
   175)     1969.6  Rx      0618  8  00 01 00 64 AB 13 00 00 
   176)     1984.5  Rx      0600  8  0A 64 01 00 00 40 00 00 
   177)     1991.5  Rx      0626  8  00 00 FE 7F 00 00 00 00 
   178)     1992.5  Rx      0628  8  0A 04 6F 00 20 00 00 00 
   179)     2015.6  Rx  1839F380  8  01 19 20 1C 08 07 00 A6 
   180)     2025.5  Rx      0626  8  00 00 FE 7F 00 00 00 00 
   181)     2035.5  Rx      0610  8  00 00 00 00 00 00 00 00 
   182)     2059.5  Rx      0626  8  00 00 FE 7F 00 00 00 00 
   183)     2070.5  Rx      0618  8  00 01 00 64 AB 13 00 00 
   184)     2071.5  Rx      0625  8  00 00 00 00 32 00 00 00 
   185)     2086.6  Rx      0600  8  0A 64 01 00 00 40 00 00 
   186)     2093.6  Rx      0626  8  00 00 FE 7F 00 00 00 00 
   187)     2115.6  Rx  1839F380  8  01 19 20 1C 08 07 00 A6 
   188)     2127.6  Rx      0626  8  00 00 FE 7F 00 00 00 00 
   189)     2136.6  Rx      0610  8  00 00 00 00 00 00 00 00 
   190)     2161.5  Rx      0626  8  00 00 FE 7F 00 00 00 00 
   191)     2171.5  Rx      0618  8  00 01 00 64 AC 13 00 00 
   192)     2188.5  Rx      0600  8  0A 64 01 00 00 40 00 00 
   193)     2195.5  Rx      0626  8  00 00 FE 7F 00 00 00 00 
   194)     2215.6  Rx  1839F380  8  01 19 20 1C 08 07 00 A6 
   195)     2229.5  Rx      0626  8  00 00 FE 7F 00 00 00 00 
   196)     2237.6  Rx      0610  8  00 00 00 00 00 00 00 00 
   197)     2263.5  Rx      0626  8  00 00 FE 7F 00 00 00 00 
   198)     2272.5  Rx      0618  8  00 01 00 64 AC 13 00 00 
   199)     2290.5  Rx      0600  8  0A 64 01 00 00 40 00 00 
   200)     2297.5  Rx      0626  8  00 00 FE 7F 00 00 00 00 
   201)     2315.6  Rx  1839F380  8  01 19 20 1C 08 07 00 A6 
   202)     2331.5  Rx      0626  8  00 00 FE 7F 00 00 00 00 
   203)     2338.5  Rx      0610  8  00 00 00 00 00 00 00 00 
   204)     2349.5  Rx      0620  8  0A 19 00 00 81 02 00 00 
   205)     2365.5  Rx      0626  8  00 00 FE 7F 00 00 00 00 
   206)     2373.5  Rx      0618  8  00 01 00 64 AB 13 00 00 
   207)     2388.4  Rx      0037  3  00 00 00 
   208)     2388.9  Rx      0030  8  07 40 00 04 00 00 00 33 
   209)     2392.5  Rx      0600  8  0A 64 01 00 00 40 00 00 
   210)     2399.6  Rx      0626  8  00 00 FE 7F 00 00 00 00 
   211)     2415.6  Rx  1839F380  8  01 19 20 1C 08 07 00 A6 
   212)     2433.5  Rx      0626  8  00 00 FE 7F 00 00 00 00 
   213)     2439.5  Rx      0610  8  00 00 00 00 00 00 00 00 
   214)     2467.5  Rx      0626  8  00 00 FE 7F 00 00 00 00 
   215)     2474.5  Rx      0618  8  00 01 00 64 AD 13 00 00 
   216)     2494.5  Rx      0600  8  0A 64 01 00 00 40 00 00 
   217)     2501.5  Rx      0626  8  00 00 FE 7F 00 00 00 00 
   218)     2515.6  Rx  1839F380  8  01 19 20 1C 08 07 00 A6 
   219)     2515.6  Rx      0100  8  2C 46 F9 F1 12 C0 E7 E3 
   220)     2518.6  Rx      0101  8  13 88 00 17 00 60 8B 52 
   221)     2521.6  Rx      0102  8  00 00 00 00 00 00 1B 00 
   222)     2524.6  Rx      0104  4  1C 03 71 49 
   223)     2527.6  Rx      0105  8  0B B0 0B BA 0B A6 31 E4 
   224)     2530.6  Rx      0107  8  0F CB 0F D2 0F CE 7D 82 
   225)     2533.6  Rx      0108  8  0F D5 0F D1 0F CD 7E 9A 
   226)     2535.5  Rx      0626  8  00 00 FE 7F 00 00 00 00 
   227)     2536.6  Rx      0109  8  0F D4 0F D0 0F CC BE 37 
   228)     2539.6  Rx      010A  8  0F D3 0F CF 0F CB 7A F2 
   229)     2540.5  Rx      0610  8  00 00 00 00 00 00 00 00 
   230)     2542.6  Rx      010B  8  0F D2 0F CE 0F D5 72 1E 
   231)     2545.6  Rx      010C  8  0F D1 0F CD 0F D4 B2 6B 
   232)     2548.6  Rx      010D  8  0F D0 0F CC 0F D3 70 46 
   233)     2551.6  Rx      010E  8  0F CF 0F CB 0F D2 B3 A3 
   234)     2554.6  Rx      010F  8  0F CE 0F D5 0F D1 74 BE 
   235)     2557.6  Rx      0110  8  0F CD 00 00 00 00 34 2D 
   236)     2569.5  Rx      0626  8  00 00 FE 7F 00 00 00 00 
   237)     2575.5  Rx      0618  8  00 01 00 64 AB 13 00 00 
   238)     2596.5  Rx      0600  8  0A 64 01 00 00 40 00 00 
   239)     2603.5  Rx      0626  8  00 00 FE 7F 00 00 00 00 
   240)     2615.6  Rx  1839F380  8  01 19 20 1C 08 07 00 A6 
   241)     2637.5  Rx      0626  8  00 00 FE 7F 00 00 00 00 
   242)     2641.5  Rx      0610  8  00 00 00 00 00 00 00 00 
   243)     2671.5  Rx      0626  8  00 00 FE 7F 00 00 00 00 
   244)     2676.5  Rx      0618  8  00 01 00 64 AD 13 00 00 
   245)     2698.5  Rx      0600  8  0A 64 01 00 00 40 00 00 
   246)     2705.5  Rx      0626  8  00 00 FE 7F 00 00 00 00 
   247)     2715.6  Rx  1839F380  8  01 19 20 1C 08 07 00 A6 
   248)     2739.5  Rx      0626  8  00 00 FE 7F 00 00 00 00 
   249)     2742.5  Rx      0610  8  00 00 00 00 00 00 00 00 
   250)     2749.5  Rx      0628  8  07 04 6F 00 20 00 00 00 
   251)     2773.5  Rx      0626  8  00 00 FE 7F 00 00 00 00 
   252)     2777.5  Rx      0618  8  00 01 00 64 AC 13 00 00 
   253)     2800.5  Rx      0600  8  0A 64 01 00 00 40 00 00 
   254)     2807.5  Rx      0626  8  00 00 FE 7F 00 00 00 00 
   255)     2815.6  Rx  1839F380  8  01 19 20 1C 08 07 00 A6 
   256)     2841.5  Rx      0626  8  00 00 FE 7F 00 00 00 00 
   257)     2843.5  Rx      0610  8  00 00 00 00 00 00 00 00 
   258)     2875.5  Rx      0626  8  00 00 FE 7F 00 00 00 00 
   259)     2878.5  Rx      0618  8  00 01 00 64 AB 13 00 00 
   260)     2902.5  Rx      0600  8  0A 64 01 00 00 40 00 00 
   261)     2909.5  Rx      0626  8  00 00 FE 7F 00 00 00 00 
   262)     2915.6  Rx  1839F380  8  01 19 20 1C 08 07 00 A6 
   263)     2943.5  Rx      0626  8  00 00 FE 7F 00 00 00 00 
   264)     2944.5  Rx      0610  8  00 00 00 00 00 00 00 00 
   265)     2960.5  Rx      0625  8  00 00 00 00 32 00 00 00 
   266)     2977.5  Rx      0626  8  00 00 FE 7F 00 00 00 00 
   267)     2979.5  Rx      0618  8  00 01 00 64 AD 13 00 00 
   268)     3004.5  Rx      0600  8  0A 64 01 00 00 40 00 00 
   269)     3011.5  Rx      0626  8  00 00 FE 7F 00 00 00 00 
   270)     3015.6  Rx  1839F380  8  01 19 20 1C 08 07 00 A6 
   271)     3045.5  Rx      0610  8  00 00 00 00 00 00 00 00 
   272)     3045.7  Rx      0626  8  00 00 FE 7F 00 00 00 00 
   273)     3079.6  Rx      0626  8  00 00 FE 7F 00 00 00 00 
   274)     3080.5  Rx      0618  8  00 01 00 64 AD 13 00 00 
   275)     3106.5  Rx      0600  8  0A 64 01 00 00 40 00 00 
   276)     3113.5  Rx      0626  8  00 00 FE 7F 00 00 00 00 
   277)     3115.6  Rx  1839F380  8  01 19 20 1C 08 07 00 A6 
   278)     3146.5  Rx      0610  8  00 00 00 00 00 00 00 00 
   279)     3147.5  Rx      0626  8  00 00 FE 7F 00 00 00 00 
   280)     3181.5  Rx      0618  8  00 01 00 64 AC 13 00 00 
   281)     3181.7  Rx      0626  8  00 00 FE 7F 00 00 00 00 
   282)     3208.5  Rx      0600  8  0A 64 01 00 00 40 00 00 
   283)     3215.5  Rx      0626  8  00 00 FE 7F 00 00 00 00 
   284)     3215.6  Rx  1839F380  8  01 19 20 1C 08 07 00 A6 
   285)     3247.5  Rx      0610  8  00 00 00 00 00 00 00 00 
   286)     3249.5  Rx      0626  8  00 00 FE 7F 00 00 00 00 
   287)     3282.5  Rx      0618  8  00 01 00 64 AB 13 00 00 
   288)     3283.5  Rx      0626  8  00 00 FE 7F 00 00 00 00 
   289)     3310.5  Rx      0600  8  0A 64 01 00 00 40 00 00 
   290)     3315.6  Rx  1839F380  8  01 19 20 1C 08 07 00 A6 
   291)     3317.5  Rx      0626  8  00 00 FE 7F 00 00 00 00 
   292)     3348.5  Rx      0610  8  00 00 00 00 00 00 00 00 
   293)     3350.5  Rx      0620  8  0A 19 00 00 81 02 00 00 
   294)     3351.5  Rx      0626  8  00 00 FE 7F 00 00 00 00 
   295)     3383.5  Rx      0618  8  00 01 00 64 AC 13 00 00 
   296)     3385.5  Rx      0626  8  00 00 FE 7F 00 00 00 00 
   297)     3412.5  Rx      0600  8  0A 64 01 00 00 40 00 00 
   298)     3415.6  Rx  1839F380  8  01 19 20 1C 08 07 00 A6 
   299)     3419.5  Rx      0626  8  00 00 FE 7F 00 00 00 00 
   300)     3449.5  Rx      0610  8  00 00 00 00 00 00 00 00 
   301)     3453.5  Rx      0626  8  00 00 FE 7F 00 00 00 00 
   302)     3484.5  Rx      0618  8  00 01 00 64 AD 13 00 00 
   303)     3487.5  Rx      0626  8  00 00 FE 7F 00 00 00 00 
   304)     3506.5  Rx      0628  8  0A 04 6F 00 20 00 00 00 
   305)     3514.5  Rx      0600  8  0A 64 01 00 00 40 00 00 
   306)     3515.6  Rx  1839F380  8  01 19 20 1C 08 07 00 A6 
   307)     3515.6  Rx      0100  8  2C 22 F9 83 12 8E 00 B2 
   308)     3518.6  Rx      0101  8  13 88 00 17 00 5F 9B 12 
   309)     3521.5  Rx      0626  8  00 00 FE 7F 00 00 00 00 
   310)     3521.6  Rx      0102  8  00 00 00 00 00 00 1B 00 
   311)     3524.6  Rx      0104  4  1C 03 71 49 
   312)     3527.6  Rx      0105  8  0B B0 0B BA 0B A6 31 E4 
   313)     3530.6  Rx      0107  8  0F BE 0F C5 0F C1 B6 FF 
   314)     3533.6  Rx      0108  8  0F C8 0F C4 0F C0 7D A6 
   315)     3536.6  Rx      0109  8  0F C7 0F C3 0F BF 5D 02 
   316)     3539.6  Rx      010A  8  0F C6 0F C2 0F BE 9D AF 
   317)     3542.6  Rx      010B  8  0F C5 0F C1 0F C8 7B 9A 
   318)     3545.6  Rx      010C  8  0F C4 0F C0 0F C7 7F B6 
   319)     3548.6  Rx      010D  8  0F C3 0F BF 0F C6 A7 F3 
   320)     3550.5  Rx      0610  8  00 00 00 00 00 00 00 00 
   321)     3551.6  Rx      010E  8  0F C2 0F BE 0F C5 A6 DF 
   322)     3554.6  Rx      010F  8  0F C1 0F C8 0F C4 BC BB 
   323)     3555.5  Rx      0626  8  00 00 FE 7F 00 00 00 00 
   324)     3557.6  Rx      0110  8  0F C0 00 00 00 00 F5 00 
   325)     3585.5  Rx      0618  8  00 01 00 64 AC 13 00 00 
   326)     3589.5  Rx      0626  8  00 00 FE 7F 00 00 00 00 
   327)     3615.6  Rx  1839F380  8  01 19 20 1C 08 07 00 A6 
   328)     3616.5  Rx      0600  8  0A 64 01 00 00 40 00 00 
   329)     3623.5  Rx      0626  8  00 00 FE 7F 00 00 00 00 
   330)     3651.5  Rx      0610  8  00 00 00 00 00 00 00 00 
   331)     3657.5  Rx      0626  8  00 00 FE 7F 00 00 00 00 
   332)     3686.5  Rx      0618  8  00 01 00 64 AB 13 00 00 
   333)     3691.5  Rx      0626  8  00 00 FE 7F 00 00 00 00 
   334)     3715.6  Rx  1839F380  8  01 19 20 1C 08 07 00 A6 
   335)     3718.5  Rx      0600  8  0A 64 01 00 00 40 00 00 
   336)     3725.5  Rx      0626  8  00 00 FE 7F 00 00 00 00 
   337)     3752.5  Rx      0610  8  00 00 00 00 00 00 00 00 
   338)     3759.5  Rx      0626  8  00 00 FE 7F 00 00 00 00 
   339)     3787.5  Rx      0618  8  00 01 00 64 AB 13 00 00 
   340)     3793.5  Rx      0626  8  00 00 FE 7F 00 00 00 00 
   341)     3815.6  Rx  1839F380  8  01 19 20 1C 08 07 00 A6 
   342)     3820.5  Rx      0600  8  0A 64 01 00 00 40 00 00 
   343)     3827.5  Rx      0626  8  00 00 FE 7F 00 00 00 00 
   344)     3849.5  Rx      0625  8  00 00 00 00 32 00 00 00 
   345)     3853.5  Rx      0610  8  00 00 00 00 00 00 00 00 
   346)     3861.5  Rx      0626  8  00 00 FE 7F 00 00 00 00 
   347)     3888.5  Rx      0618  8  00 01 00 64 AC 13 00 00 
   348)     3895.5  Rx      0626  8  00 00 FE 7F 00 00 00 00 
   349)     3915.6  Rx  1839F380  8  01 19 20 1C 08 07 00 A6 
   350)     3922.5  Rx      0600  8  0A 64 01 00 00 40 00 00 
   351)     3929.5  Rx      0626  8  00 00 FE 7F 00 00 00 00 
   352)     3954.5  Rx      0610  8  00 00 00 00 00 00 00 00 
   353)     3963.5  Rx      0626  8  00 00 FE 7F 00 00 00 00 
   354)     3989.5  Rx      0618  8  00 01 00 64 AB 13 00 00 
   355)     3997.5  Rx      0626  8  00 00 FE 7F 00 00 00 00 
   356)     4015.6  Rx  1839F380  8  01 19 20 1C 08 07 00 A6 
   357)     4024.5  Rx      0600  8  0A 64 01 00 00 40 00 00 
   358)     4031.5  Rx      0626  8  00 00 FE 7F 00 00 00 00 
   359)     4055.5  Rx      0610  8  00 00 00 00 00 00 00 00 
   360)     4065.6  Rx      0626  8  00 00 FE 7F 00 00 00 00 
   361)     4090.5  Rx      0618  8  00 01 00 64 AA 13 00 00 
   362)     4099.5  Rx      0626  8  00 00 FE 7F 00 00 00 00 
   363)     4115.6  Rx  1839F380  8  01 19 20 1C 08 07 00 A6 
   364)     4126.6  Rx      0600  8  0A 64 01 00 00 40 00 00 
   365)     4133.5  Rx      0626  8  00 00 FE 7F 00 00 00 00 
   366)     4156.5  Rx      0610  8  00 00 00 00 00 00 00 00 
   367)     4167.5  Rx      0626  8  00 00 FE 7F 00 00 00 00 
   368)     4191.5  Rx      0618  8  00 01 00 64 AB 13 00 00 
   369)     4201.5  Rx      0626  8  00 00 FE 7F 00 00 00 00 
   370)     4215.6  Rx  1839F380  8  01 19 20 1C 08 07 00 A6 
   371)     4228.5  Rx      0600  8  0A 64 01 00 00 40 00 00 
   372)     4235.5  Rx      0626  8  00 00 FE 7F 00 00 00 00 
   373)     4257.5  Rx      0610  8  00 00 00 00 00 00 00 00 
   374)     4263.5  Rx      0628  8  0A 04 6F 00 20 00 00 00 
   375)     4269.5  Rx      0626  8  00 00 FE 7F 00 00 00 00 
   376)     4292.5  Rx      0618  8  00 01 00 64 AC 13 00 00 
   377)     4303.5  Rx      0626  8  00 00 FE 7F 00 00 00 00 
   378)     4315.6  Rx  1839F380  8  01 19 20 1C 08 07 00 A6 
   379)     4330.5  Rx      0600  8  0A 64 01 00 00 40 00 00 
   380)     4337.5  Rx      0626  8  00 00 FE 7F 00 00 00 00 
   381)     4351.5  Rx      0620  8  0A 19 00 00 81 02 00 00 
   382)     4358.5  Rx      0610  8  00 00 00 00 00 00 00 00 
   383)     4371.6  Rx      0626  8  00 00 FE 7F 00 00 00 00 
   384)     4389.5  Rx      0037  3  00 00 00 
   385)     4390.0  Rx      0030  8  07 40 00 04 00 00 00 34 
   386)     4393.5  Rx      0618  8  00 01 00 64 AA 13 00 00 
   387)     4405.5  Rx      0626  8  00 00 FE 7F 00 00 00 00 
   388)     4415.6  Rx  1839F380  8  01 19 20 1C 08 07 00 A6 
   389)     4432.5  Rx      0600  8  0A 64 01 00 00 40 00 00 
   390)     4439.5  Rx      0626  8  00 00 FE 7F 00 00 00 00 
   391)     4459.5  Rx      0610  8  00 00 00 00 00 00 00 00 
   392)     4473.5  Rx      0626  8  00 00 FE 7F 00 00 00 00 
   393)     4494.5  Rx      0618  8  00 01 00 64 AC 13 00 00 
   394)     4507.5  Rx      0626  8  00 00 FE 7F 00 00 00 00 
   395)     4515.6  Rx  1839F380  8  01 19 20 1C 08 07 00 A6 
   396)     4515.6  Rx      0100  8  2C 22 F9 33 12 8E E7 B3 
   397)     4518.6  Rx      0101  8  13 88 00 17 00 5F 9B 12 
   398)     4521.6  Rx      0102  8  00 00 00 00 00 00 1B 00 
   399)     4524.6  Rx      0104  4  1C 03 71 49 
   400)     4527.6  Rx      0105  8  0B B0 0B BA 0B A6 31 E4 
   401)     4530.6  Rx      0107  8  0F BE 0F C5 0F C1 B6 FF 
   402)     4533.6  Rx      0108  8  0F C8 0F C4 0F C0 7D A6 
   403)     4534.5  Rx      0600  8  0A 64 01 00 00 40 00 00 
   404)     4536.6  Rx      0109  8  0F C7 0F C3 0F BF 5D 02 
   405)     4539.6  Rx      010A  8  0F C6 0F C2 0F BE 9D AF 
   406)     4541.5  Rx      0626  8  00 00 FE 7F 00 00 00 00 
   407)     4542.6  Rx      010B  8  0F C5 0F C1 0F C8 7B 9A 
   408)     4545.6  Rx      010C  8  0F C4 0F C0 0F C7 7F B6 
   409)     4548.6  Rx      010D  8  0F C3 0F BF 0F C6 A7 F3 
   410)     4551.6  Rx      010E  8  0F C2 0F BE 0F C5 A6 DF 
   411)     4554.6  Rx      010F  8  0F C1 0F C8 0F C4 BC BB 
   412)     4557.6  Rx      0110  8  0F C0 00 00 00 00 F5 00 
   413)     4560.5  Rx      0610  8  00 00 00 00 00 00 00 00 
   414)     4575.5  Rx      0626  8  00 00 FE 7F 00 00 00 00 
   415)     4595.5  Rx      0618  8  00 01 00 64 AB 13 00 00 
   416)     4609.5  Rx      0626  8  00 00 FE 7F 00 00 00 00 
   417)     4615.6  Rx  1839F380  8  01 19 20 1C 08 07 00 A6 
   418)     4636.5  Rx      0600  8  0A 64 01 00 00 40 00 00 
   419)     4643.5  Rx      0626  8  00 00 FE 7F 00 00 00 00 
   420)     4661.5  Rx      0610  8  00 00 00 00 00 00 00 00 
   421)     4677.5  Rx      0626  8  00 00 FE 7F 00 00 00 00 
   422)     4696.5  Rx      0618  8  00 01 00 64 AC 13 00 00 
   423)     4711.5  Rx      0626  8  00 00 FE 7F 00 00 00 00 
   424)     4715.6  Rx  1839F380  8  01 19 20 1C 08 07 00 A6 
   425)     4738.5  Rx      0600  8  0A 64 01 00 00 40 00 00 
   426)     4738.6  Rx      0625  8  00 00 00 00 32 00 00 00 
   427)     4745.5  Rx      0626  8  00 00 FE 7F 00 00 00 00 
   428)     4762.5  Rx      0610  8  00 00 00 00 00 00 00 00 
   429)     4779.5  Rx      0626  8  00 00 FE 7F 00 00 00 00 
   430)     4797.5  Rx      0618  8  00 01 00 64 AC 13 00 00 
   431)     4813.5  Rx      0626  8  00 00 FE 7F 00 00 00 00 
   432)     4815.6  Rx  1839F380  8  01 19 20 1C 08 07 00 A6 
   433)     4840.5  Rx      0600  8  0A 64 01 00 00 40 00 00 
   434)     4847.5  Rx      0626  8  00 00 FE 7F 00 00 00 00 
   435)     4863.5  Rx      0610  8  00 00 00 00 00 00 00 00 
   436)     4881.5  Rx      0626  8  00 00 FE 7F 00 00 00 00 
   437)     4898.5  Rx      0618  8  00 01 00 64 AC 13 00 00 
   438)     4915.5  Rx      0626  8  00 00 FE 7F 00 00 00 00 
   439)     4915.6  Rx  1839F380  8  01 19 20 1C 08 07 00 A6 
   440)     4942.5  Rx      0600  8  0A 64 01 00 00 40 00 00 
   441)     4949.5  Rx      0626  8  00 00 FE 7F 00 00 00 00 
   442)     4964.5  Rx      0610  8  00 00 00 00 00 00 00 00 
   443)     4983.5  Rx      0626  8  00 00 FE 7F 00 00 00 00 
   444)     4999.5  Rx      0618  8  00 01 00 64 AC 13 00 00 
   445)     5015.6  Rx  1839F380  8  01 19 20 1C 08 07 00 A6 
   446)     5017.5  Rx      0626  8  00 00 FE 7F 00 00 00 00 
   447)     5020.5  Rx      0628  8  07 04 6F 00 20 00 00 00 
   448)     5044.5  Rx      0600  8  0A 64 01 00 00 40 00 00 
   449)     5051.5  Rx      0626  8  00 00 FE 7F 00 00 00 00 
   450)     5065.5  Rx      0610  8  00 00 00 00 00 00 00 00 
   451)     5085.4  Rx      0626  8  00 00 FE 7F 00 00 00 00 
   452)     5100.5  Rx      0618  8  00 01 00 64 AC 13 00 00 
   453)     5115.6  Rx  1839F380  8  01 1A 21 1D 08 07 00 A9 
   454)     5119.5  Rx      0626  8  00 00 FE 7F 00 00 00 00 
   455)     5146.5  Rx      0600  8  0A 64 01 00 00 40 00 00 
   456)     5153.5  Rx      0626  8  00 00 FE 7F 00 00 00 00 
   457)     5166.5  Rx      0610  8  00 00 00 00 00 00 00 00 
   458)     5187.5  Rx      0626  8  00 00 FE 7F 00 00 00 00 
   459)     5201.5  Rx      0618  8  00 01 00 64 AD 13 00 00 
   460)     5215.6  Rx  1839F380  8  01 1A 21 1D 08 07 00 A9 
   461)     5221.5  Rx      0626  8  00 00 FE 7F 00 00 00 00 
   462)     5248.5  Rx      0600  8  0A 64 01 00 00 40 00 00 
   463)     5255.5  Rx      0626  8  00 00 FE 7F 00 00 00 00 
   464)     5267.5  Rx      0610  8  00 00 00 00 00 00 00 00 
   465)     5289.5  Rx      0626  8  0B 00 66 26 01 00 00 00 
   466)     5302.6  Rx      0618  8  00 01 00 64 B6 13 00 00 
   467)     5315.6  Rx  1839F380  8  01 1A 21 1D 08 07 00 A9 
   468)     5323.5  Rx      0626  8  D6 02 FE 7F 03 00 00 00 
   469)     5350.5  Rx      0600  8  0A 66 01 00 00 40 00 00 
   470)     5352.5  Rx      0620  8  0A 19 00 00 81 02 00 00 
   471)     5357.5  Rx      0626  8  BA 05 FE 7F 08 00 00 00 
   472)     5368.5  Rx      0610  8  01 00 01 00 01 00 00 00 
   473)     5391.5  Rx      0626  8  7D 08 FE 7F 10 00 00 00 
   474)     5403.5  Rx      0618  8  00 01 00 64 B5 13 02 00 
   475)     5415.6  Rx  1839F380  8  01 1A 21 1D 08 07 00 A9 
   476)     5425.5  Rx      0626  8  BC 0B FE 7F 19 00 00 00 
   477)     5452.5  Rx      0600  8  0A 66 01 00 00 40 00 00 
   478)     5459.5  Rx      0626  8  63 0F FE 7F 30 00 00 00 
   479)     5469.5  Rx      0610  8  04 00 08 00 08 00 02 00 
   480)     5493.5  Rx      0626  8  80 12 FE 7F 5C 00 00 00 
   481)     5504.5  Rx      0618  8  00 01 00 64 B1 13 07 00 
   482)     5515.6  Rx  1839F380  8  01 1A 21 1D 08 07 00 A9 
   483)     5515.6  Rx      0100  8  2C 22 F9 03 12 8E E8 B3 
   484)     5518.6  Rx      0101  8  13 88 00 17 00 5F 9B 12 
   485)     5521.6  Rx      0102  8  00 00 00 00 00 00 1B 00 
   486)     5524.6  Rx      0104  4  1C 03 71 49 
   487)     5527.5  Rx      0626  8  C4 14 FE 7F 91 00 00 00 
   488)     5527.6  Rx      0105  8  0B B0 0B BA 0B A6 31 E4 
   489)     5530.6  Rx      0107  8  0F BE 0F C5 0F C1 B6 FF 
   490)     5533.6  Rx      0108  8  0F C8 0F C4 0F C0 7D A6 
   491)     5536.6  Rx      0109  8  0F C7 0F C3 0F BF 5D 02 
   492)     5539.6  Rx      010A  8  0F C6 0F C2 0F BE 9D AF 
   493)     5542.6  Rx      010B  8  0F C5 0F C1 0F C8 7B 9A 
   494)     5545.6  Rx      010C  8  0F C4 0F C0 0F C7 7F B6 
   495)     5548.6  Rx      010D  8  0F C3 0F BF 0F C6 A7 F3 
   496)     5551.6  Rx      010E  8  0F C2 0F BE 0F C5 A6 DF 
   497)     5554.5  Rx      0600  8  0A 66 01 00 00 40 00 00 
   498)     5554.6  Rx      010F  8  0F C1 0F C8 0F C4 BC BB 
   499)     5557.6  Rx      0110  8  0F C0 00 00 00 00 F5 00 
   500)     5561.5  Rx      0626  8  E5 0E FE 7F 95 00 00 00 
   501)     5570.5  Rx      0610  8  06 00 20 00 21 00 07 00 
   502)     5595.5  Rx      0626  8  D6 16 FE 7F 3B 01 00 00 
   503)     5605.5  Rx      0618  8  00 01 00 64 A6 13 14 00 
   504)     5615.6  Rx  1839F380  8  01 1A 21 1D 08 07 00 A9 
   505)     5627.5  Rx      0625  8  00 00 00 00 32 00 00 00 
   506)     5629.5  Rx      0626  8  23 19 FE 7F 74 01 00 00 
   507)     5656.5  Rx      0600  8  0A 66 01 00 00 40 00 00 
   508)     5663.5  Rx      0626  8  75 1E FE 7F F9 01 00 00 
   509)     5671.5  Rx      0610  8  09 00 6B 00 6E 00 17 00 
   510)     5697.5  Rx      0626  8  61 23 FE 7F 82 02 00 00 
   511)     5706.5  Rx      0618  8  00 01 00 64 9C 13 32 00 
   512)     5715.6  Rx  1839F380  8  01 1A 21 1D 08 07 00 A9 
   513)     5731.5  Rx      0626  8  0E 26 FE 7F FE 02 00 00 
   514)     5758.5  Rx      0600  8  0A 66 01 00 00 40 00 00 
   515)     5765.5  Rx      0626  8  B8 27 FE 7F B8 03 00 00 
   516)     5772.5  Rx      0610  8  0E 00 DD 00 E4 00 3B 00 
   517)     5777.5  Rx      0628  8  07 04 6F 00 20 00 00 00 
   518)     5799.5  Rx      0626  8  03 28 FE 7F 2C 04 00 00 
   519)     5807.5  Rx      0618  8  00 01 00 64 A0 13 5B 00 
   520)     5815.6  Rx  1839F380  8  01 1A 21 1D 08 07 00 A9 
   521)     5833.5  Rx      0626  8  1D 28 FE 7F BC 04 00 00 
   522)     5860.5  Rx      0600  8  0A 66 01 00 00 40 00 00 
   523)     5867.4  Rx      0626  8  1D 28 FE 7F 4E 05 00 00 
   524)     5873.5  Rx      0610  8  0F 00 57 01 62 01 5E 00 
   525)     5901.5  Rx      0626  8  20 28 FE 7F C5 05 00 00 
   526)     5908.5  Rx      0618  8  00 01 00 64 89 13 76 00 
   527)     5915.6  Rx  1839F380  8  01 1A 21 1D 08 07 00 A9 
   528)     5935.5  Rx      0626  8  29 28 FE 7F 42 06 00 00 
   529)     5960.5  Rx      0615  8  24 00 56 00 00 00 00 00 
   530)     5962.5  Rx      0600  8  0A 66 01 00 00 40 00 00 
   531)     5969.5  Rx      0626  8  2E 28 FE 7F A7 06 00 00 
   532)     5974.5  Rx      0610  8  0F 00 C8 01 D7 01 7B 00 
   533)     6003.5  Rx      0626  8  13 28 FE 7F 37 07 00 00 
   534)     6009.5  Rx      0618  8  00 01 00 64 87 13 92 00 
   535)     6015.6  Rx  1839F380  8  01 1A 21 1D 08 07 00 A9 
   536)     6037.5  Rx      0626  8  1A 28 FE 7F 91 07 00 00 
   537)     6064.5  Rx      0600  8  0A 66 01 00 00 40 00 00 
   538)     6071.5  Rx      0626  8  FB 27 FE 7F 0B 08 00 00 
   539)     6075.5  Rx      0610  8  0F 00 31 02 45 02 96 00 
   540)     6105.5  Rx      0626  8  F3 27 FE 7F 83 08 00 00 
   541)     6110.5  Rx      0618  8  00 01 00 64 8C 13 AB 00 
   542)     6115.6  Rx  1839F380  8  01 1A 21 1D 08 07 00 A9 
   543)     6139.5  Rx      0626  8  FB 27 FE 7F F7 08 00 00 
   544)     6166.5  Rx      0600  8  0A 66 01 00 00 40 00 00 
   545)     6173.5  Rx      0626  8  F9 27 FE 7F 58 09 00 00 
   546)     6176.5  Rx      0610  8  0F 00 94 02 AC 02 B0 00 
   547)     6207.4  Rx      0626  8  E9 27 FE 7F B4 09 00 00 
   548)     6211.5  Rx      0618  8  00 01 00 64 7C 13 C5 00 
   549)     6215.6  Rx  1839F380  8  01 1A 21 1D 08 07 00 A9 
   550)     6241.5  Rx      0626  8  E4 27 FE 7F 29 0A 00 00 
   551)     6268.5  Rx      0600  8  0A 66 01 00 00 40 00 00 
   552)     6275.5  Rx      0626  8  CE 27 FE 7F 8C 0A 00 00 
   553)     6277.6  Rx      0610  8  0F 00 F3 02 0E 03 C7 00 
   554)     6309.5  Rx      0626  8  C3 27 FE 7F FC 0A 00 00 
   555)     6312.5  Rx      0618  8  00 01 00 64 6F 13 DB 00 
   556)     6315.6  Rx  1839F380  8  01 1A 21 1D 08 07 00 A9 
   557)     6343.5  Rx      0626  8  CE 27 FE 7F 63 0B 00 00 
   558)     6353.4  Rx      0620  8  0A 19 00 00 81 02 00 00 
   559)     6370.5  Rx      0600  8  0A 66 01 00 00 40 00 00 
   560)     6377.5  Rx      0626  8  BC 27 FE 7F C7 0B 00 00 
   561)     6378.5  Rx      0610  8  0F 00 4D 03 6C 03 DD 00 
   562)     6379.5  Rx      0615  8  50 00 56 00 00 00 00 00 
   563)     6388.0  Rx      0037  3  00 00 00 
   564)     6388.6  Rx      0030  8  07 40 00 04 00 00 00 35 
   565)     6411.5  Rx      0626  8  89 27 FE 7F 29 0C 00 00 
   566)     6413.5  Rx      0618  8  00 01 00 64 6D 13 F0 00 
   567)     6415.6  Rx  1839F380  8  01 1A 21 1D 08 07 00 A9 
   568)     6445.5  Rx      0626  8  68 27 99 7F 8C 0C 00 00 
   569)     6472.5  Rx      0600  8  0A 66 01 00 10 40 00 00 
   570)     6479.5  Rx      0610  8  0F 00 A4 03 C6 03 F2 00 
   571)     6479.6  Rx      0626  8  40 27 A1 7F E3 0C 00 00 
   572)     6513.5  Rx      0626  8  D8 26 1E 7E 49 0D 00 00 
   573)     6514.5  Rx      0618  8  00 01 00 64 62 13 01 01 
   574)     6515.6  Rx  1839F380  8  01 1A 21 1D 08 07 00 A9 
   575)     6515.6  Rx      0100  8  2C 22 F8 F9 12 8E 25 92 
   576)     6516.5  Rx      0625  8  00 00 00 00 32 00 00 00 
   577)     6518.6  Rx      0101  8  13 88 00 17 00 5F 9B 12 
   578)     6521.6  Rx      0102  8  00 00 00 00 00 00 1B 00 
   579)     6524.6  Rx      0104  4  1C 03 71 49 
   580)     6527.6  Rx      0105  8  0B B0 0B BA 0B A6 31 E4 
   581)     6530.6  Rx      0107  8  0F BE 0F C5 0F C1 B6 FF 
   582)     6533.6  Rx      0108  8  0F C8 0F C4 0F C0 7D A6 
   583)     6534.5  Rx      0628  8  0A 04 6F 00 20 00 00 00 
   584)     6536.6  Rx      0109  8  0F C7 0F C3 0F BF 5D 02 
   585)     6539.6  Rx      010A  8  0F C6 0F C2 0F BE 9D AF 
   586)     6542.6  Rx      010B  8  0F C5 0F C1 0F C8 7B 9A 
   587)     6545.6  Rx      010C  8  0F C4 0F C0 0F C7 7F B6 
   588)     6547.5  Rx      0626  8  23 26 3C 7A 9F 0D 00 00 
   589)     6548.6  Rx      010D  8  0F C3 0F BF 0F C6 A7 F3 
   590)     6551.6  Rx      010E  8  0F C2 0F BE 0F C5 A6 DF 
   591)     6554.6  Rx      010F  8  0F C1 0F C8 0F C4 BC BB 
   592)     6557.6  Rx      0110  8  0F C0 00 00 00 00 F5 00 
   593)     6574.5  Rx      0600  8  0A 66 01 00 10 40 00 00 
   594)     6580.4  Rx      0610  8  0E 00 F7 03 1B 04 FE 00 
   595)     6581.5  Rx      0626  8  18 25 D0 77 01 0E 00 00 
   596)     6615.5  Rx      0618  8  00 01 00 64 70 13 FE 00 
   597)     6615.6  Rx      0626  8  00 24 89 76 4F 0E 00 00 
   598)     6615.6  Rx  1839F380  8  01 1A 21 1D 08 07 00 A9 
   599)     6649.5  Rx      0626  8  3F 23 C2 74 90 0E 00 00 
   600)     6673.5  Rx      0615  8  49 00 56 00 00 00 00 00 
   601)     6676.5  Rx      0600  8  0A 66 01 00 10 40 00 00 
   602)     6681.5  Rx      0610  8  0D 00 3F 04 66 04 FE 00 
   603)     6683.5  Rx      0626  8  D9 22 B6 72 D4 0E 00 00 
   604)     6715.6  Rx  1839F380  8  01 1A 21 1D 08 07 00 A9 
   605)     6716.5  Rx      0618  8  00 01 00 64 70 13 00 01 
   606)     6717.4  Rx      0626  8  39 22 7C 71 2C 0F 00 00 
   607)     6751.5  Rx      0626  8  2A 21 13 70 60 0F 00 00 
   608)     6778.5  Rx      0600  8  0A 66 01 00 10 40 00 00 
   609)     6782.5  Rx      0610  8  0D 00 7D 04 A6 04 FC 00 
   610)     6785.5  Rx      0626  8  BF 20 15 6F A0 0F 00 00 
   611)     6815.6  Rx  1839F380  8  01 1A 21 1D 08 07 00 A9 
   612)     6817.5  Rx      0618  8  00 01 00 64 69 13 FC 00 
   613)     6819.5  Rx      0626  8  42 20 1E 6F E4 0F 00 00 
   614)     6853.5  Rx      0626  8  74 1F F6 6E 0E 10 00 00 
   615)     6880.5  Rx      0600  8  0A 66 01 00 10 40 00 00 
   616)     6883.5  Rx      0610  8  0C 00 B1 04 DD 04 F9 00 
   617)     6887.5  Rx      0626  8  0D 1F AC 6E 42 10 00 00 
   618)     6915.6  Rx  1839F380  8  01 1A 21 1D 08 07 00 A9 
   619)     6918.5  Rx      0618  8  00 01 00 64 6A 13 FB 00 
   620)     6921.5  Rx      0626  8  9B 1E 35 71 7D 10 00 00 
   621)     6925.5  Rx      0615  8  3F 00 56 00 00 00 00 00 
   622)     6955.5  Rx      0626  8  C2 1E 5C 72 9E 10 00 00 
   623)     6982.4  Rx      0600  8  0A 66 01 00 10 40 00 00 
   624)     6984.5  Rx      0610  8  0C 00 DF 04 0C 05 F9 00 
   625)     6989.4  Rx      0626  8  8E 1E 53 71 E4 10 00 00 
   626)     7015.6  Rx  1839F380  8  01 1A 21 1D 08 07 00 A9 
   627)     7019.5  Rx      0618  8  00 01 00 64 69 13 F9 00 
   628)     7023.5  Rx      0626  8  B7 1D 1B 72 02 11 00 00 
   629)     7057.5  Rx      0626  8  F1 1D 49 72 42 11 00 00 
   630)     7084.5  Rx      0600  8  0A 66 01 00 10 40 00 00 
   631)     7085.5  Rx      0610  8  0B 00 08 05 37 05 F9 00 
   632)     7091.5  Rx      0626  8  08 1D 42 74 5C 11 00 00 
   633)     7115.6  Rx  1839F380  8  01 1A 21 1D 08 07 00 A9 
   634)     7120.4  Rx      0618  8  00 01 00 64 73 13 FC 00 
   635)     7125.5  Rx      0626  8  51 1D BE 74 91 11 00 00 
   636)     7157.5  Rx      0615  8  3A 00 56 00 00 00 00 00 
   637)     7159.4  Rx      0626  8  52 1C 3F 75 AF 11 00 00 
   638)     7186.4  Rx      0600  8  0A 66 01 00 10 40 00 00 
   639)     7186.6  Rx      0610  8  0B 00 2D 05 5D 05 F8 00 
   640)     7193.4  Rx      0626  8  46 1C C9 76 DC 11 00 00 
   641)     7215.6  Rx  1839F380  8  01 1A 21 1D 08 07 00 A9 
   642)     7221.5  Rx      0618  8  00 01 00 64 6F 13 F2 00 
   643)     7227.5  Rx      0626  8  76 1B D6 7A F0 11 00 00 
   644)     7261.4  Rx      0626  8  AF 1B 55 7F 24 12 00 00 
   645)     7287.5  Rx      0610  8  0A 00 4D 05 7E 05 F2 00 
   646)     7288.4  Rx      0600  8  0A 66 01 00 00 40 00 00 
   647)     7291.4  Rx      0628  8  0A 04 6F 00 21 00 00 00 
   648)     7295.4  Rx      0626  8  A6 1A E8 7E 2E 12 00 00 
   649)     7315.6  Rx  1839F380  8  01 1A 21 1D 08 07 00 A9 
   650)     7322.5  Rx      0618  8  00 01 00 64 6C 13 EB 00 
   651)     7329.4  Rx      0626  8  98 19 DA 7F 5D 12 00 00 
   652)     7354.5  Rx      0620  8  0B 19 00 00 81 02 00 00 
   653)     7363.4  Rx      0626  8  19 18 FE 7F 60 12 00 00 
   654)     7377.5  Rx      0615  8  34 00 56 00 00 00 00 00 
   655)     7388.4  Rx      0610  8  09 00 66 05 99 05 E1 00 
   656)     7390.5  Rx      0600  8  0A 66 01 00 00 40 00 00 
   657)     7397.5  Rx      0626  8  A3 16 FE 7F 7A 12 00 00 
   658)     7405.5  Rx      0625  8  00 00 00 00 32 00 00 00 
   659)     7415.6  Rx  1839F380  8  01 1A 21 1D 08 07 00 A9 
   660)     7423.5  Rx      0618  8  00 01 00 64 73 13 C3 00 
   661)     7431.5  Rx      0626  8  1B 16 FE 7F 8C 12 00 00 
   662)     7465.4  Rx      0626  8  6F 14 FE 7F 7C 12 00 00 
   663)     7489.4  Rx      0610  8  08 00 72 05 A5 05 C1 00 
   664)     7492.4  Rx      0600  8  0A 66 01 00 00 40 00 00 
   665)     7499.4  Rx      0626  8  C5 13 FE 7F 8F 12 00 00 
   666)     7515.6  Rx  1839F380  8  01 1A 21 1D 08 07 00 A9 
   667)     7515.6  Rx      0100  8  2C 22 F9 14 12 8E EC 03 
   668)     7518.6  Rx      0101  8  13 88 00 17 00 5F 9B 12 
   669)     7521.6  Rx      0102  8  00 00 00 00 00 00 1B 00 
   670)     7524.4  Rx      0618  8  00 01 00 64 85 13 A3 00 
   671)     7524.6  Rx      0104  4  1C 03 71 49 
   672)     7527.6  Rx      0105  8  0B B0 0B BA 0B A6 31 E4 
   673)     7530.6  Rx      0107  8  0F BE 0F C5 0F C1 B6 FF 
   674)     7533.5  Rx      0626  8  F8 11 FE 7F 71 12 00 00 
   675)     7533.6  Rx      0108  8  0F C8 0F C4 0F C0 7D A6 
   676)     7536.6  Rx      0109  8  0F C7 0F C3 0F BF 5D 02 
   677)     7539.6  Rx      010A  8  0F C6 0F C2 0F BE 9D AF 
   678)     7542.6  Rx      010B  8  0F C5 0F C1 0F C8 7B 9A 
   679)     7545.6  Rx      010C  8  0F C4 0F C0 0F C7 7F B6 
   680)     7548.6  Rx      010D  8  0F C3 0F BF 0F C6 A7 F3 
   681)     7551.6  Rx      010E  8  0F C2 0F BE 0F C5 A6 DF 
   682)     7554.6  Rx      010F  8  0F C1 0F C8 0F C4 BC BB 
   683)     7557.6  Rx      0110  8  0F C0 00 00 00 00 F5 00 
   684)     7567.4  Rx      0626  8  33 11 FE 7F 74 12 00 00 
   685)     7590.4  Rx      0610  8  07 00 6F 05 A2 05 A1 00 
   686)     7592.5  Rx      0615  8  25 00 56 00 00 00 00 00 
   687)     7594.4  Rx      0600  8  0A 66 01 00 00 40 00 00 
   688)     7601.4  Rx      0626  8  81 10 FE 7F 59 12 00 00 
   689)     7615.6  Rx  1839F380  8  01 1A 21 1D 08 07 00 A9 
   690)     7625.5  Rx      0618  8  00 01 00 64 85 13 91 00 
   691)     7635.4  Rx      0626  8  A4 0F FE 7F 4E 12 00 00 
   692)     7669.5  Rx      0626  8  C1 0F FE 7F 42 12 00 00 
   693)     7691.5  Rx      0610  8  06 00 61 05 94 05 8C 00 
   694)     7696.5  Rx      0600  8  0A 66 01 00 00 40 00 00 
   695)     7703.5  Rx      0626  8  B4 0E FE 7F 1C 12 00 00 
   696)     7715.6  Rx  1839F380  8  01 1A 21 1D 08 07 00 A9 
   697)     7726.4  Rx      0618  8  00 01 00 64 90 13 7E 00 
   698)     7737.4  Rx      0626  8  B2 0E FE 7F 11 12 00 00 
   699)     7771.5  Rx      0626  8  89 0D FE 7F E9 11 00 00 
   700)     7792.5  Rx      0610  8  05 00 4E 05 80 05 7D 00 
   701)     7798.4  Rx      0600  8  0A 66 01 00 00 40 00 00 
   702)     7805.4  Rx      0626  8  D1 0D FE 7F DE 11 00 00 
   703)     7812.5  Rx      0615  8  1D 00 56 00 00 00 00 00 
   704)     7815.6  Rx  1839F380  8  01 1A 21 1D 08 07 00 A9 
   705)     7827.4  Rx      0618  8  00 01 00 64 8D 13 75 00 
   706)     7839.4  Rx      0626  8  F8 0C FE 7F B4 11 00 00 
   707)     7873.4  Rx      0626  8  3C 0D FE 7F A0 11 00 00 
   708)     7893.5  Rx      0610  8  05 00 35 05 66 05 71 00 
   709)     7900.4  Rx      0600  8  0A 66 01 00 00 40 00 00 
   710)     7907.4  Rx      0626  8  84 0C FE 7F 75 11 00 00 
   711)     7915.6  Rx  1839F380  8  01 1A 21 1D 08 07 00 A9 
   712)     7928.4  Rx      0618  8  00 01 00 64 95 13 68 00 
   713)     7941.4  Rx      0626  8  CD 0C FE 7F 65 11 00 00 
   714)     7975.4  Rx      0626  8  1E 0C FE 7F 37 11 00 00 
   715)     7994.4  Rx      0610  8  04 00 1B 05 4B 05 69 00 
   716)     8002.4  Rx      0600  8  0A 66 01 00 00 40 00 00 
   717)     8009.4  Rx      0626  8  7C 0C FE 7F 24 11 00 00 
   718)     8015.6  Rx  1839F380  8  01 1A 21 1D 08 07 00 A9 
   719)     8029.4  Rx      0618  8  00 01 00 64 8F 13 65 00 
   720)     8041.5  Rx      0615  8  18 00 56 00 00 00 00 00 
   721)     8043.5  Rx      0626  8  EF 0B FE 7F F5 10 00 00 
   722)     8048.4  Rx      0628  8  0A 04 6F 00 20 00 00 00 
   723)     8077.4  Rx      0626  8  20 0C FE 7F D6 10 00 00 
   724)     8095.4  Rx      0610  8  04 00 FE 04 2D 05 63 00 
   725)     8104.5  Rx      0600  8  0A 66 01 00 00 40 00 00 
   726)     8111.4  Rx      0626  8  D0 0B FE 7F C1 10 00 00 
   727)     8115.6  Rx  1839F380  8  01 1A 21 1D 08 07 00 A9 
   728)     8130.5  Rx      0618  8  00 01 00 64 94 13 5F 00 
   729)     8145.4  Rx      0626  8  EF 0B FE 7F 8D 10 00 00 
   730)     8179.5  Rx      0626  8  DF 0B FE 7F 86 10 00 00 
   731)     8196.4  Rx      0610  8  04 00 E1 04 10 05 5F 00 
   732)     8206.5  Rx      0600  8  0A 66 01 00 00 40 00 00 
   733)     8213.5  Rx      0626  8  9D 0B FE 7F 50 10 00 00 
   734)     8215.6  Rx  1839F380  8  01 1A 21 1D 08 07 00 A9 
   735)     8231.5  Rx      0618  8  00 01 00 64 94 13 5B 00 
   736)     8247.5  Rx      0626  8  FA 0B FE 7F 3D 10 00 00 
   737)     8281.5  Rx      0626  8  B6 0B FE 7F 20 10 00 00 
   738)     8283.5  Rx      0615  8  17 00 56 00 00 00 00 00 
   739)     8294.5  Rx      0625  8  00 00 00 00 32 00 00 00 
   740)     8297.5  Rx      0610  8  04 00 C5 04 F2 04 5C 00 
   741)     8308.4  Rx      0600  8  0A 66 01 00 00 40 00 00 
   742)     8315.4  Rx      0626  8  9F 0B FE 7F EF 0F 00 00 
   743)     8315.6  Rx  1839F380  8  01 1A 21 1D 08 07 00 A9 
   744)     8332.5  Rx      0618  8  00 01 00 64 97 13 58 00 
   745)     8349.4  Rx      0626  8  CD 0B FE 7F DD 0F 00 00 
   746)     8355.4  Rx      0620  8  0B 19 00 00 81 02 00 00 
   747)     8383.4  Rx      0626  8  7D 0B FE 7F BD 0F 00 00 
   748)     8388.5  Rx      0037  3  00 00 00 
   749)     8389.0  Rx      0030  8  07 40 00 04 00 00 00 36 
   750)     8398.4  Rx      0610  8  04 00 A9 04 D6 04 59 00 
   751)     8410.4  Rx      0600  8  0A 66 01 00 00 40 00 00 
   752)     8415.6  Rx  1839F380  8  01 1A 21 1D 08 07 00 A9 
   753)     8417.4  Rx      0626  8  A1 0B FE 7F 8F 0F 00 00 
   754)     8433.4  Rx      0618  8  00 01 00 64 8F 13 56 00 
   755)     8451.4  Rx      0626  8  BF 0B FE 7F 81 0F 00 00 
   756)     8485.5  Rx      0626  8  8E 0B FE 7F 5E 0F 00 00 
   757)     8499.5  Rx      0610  8  04 00 8E 04 B9 04 57 00 
   758)     8512.5  Rx      0600  8  0A 66 01 00 00 40 00 00 
   759)     8515.6  Rx  1839F380  8  01 1A 21 1D 08 07 00 A9 
   760)     8515.6  Rx      0100  8  2C 22 F9 52 12 8E 39 E2 
   761)     8518.6  Rx      0101  8  13 88 00 17 00 5F 9B 12 
   762)     8519.5  Rx      0626  8  A9 0B FE 7F 3B 0F 00 00 
   763)     8521.6  Rx      0102  8  00 00 00 00 00 00 1B 00 
   764)     8524.6  Rx      0104  4  1C 03 71 49 
   765)     8527.6  Rx      0105  8  0B B0 0B BA 0B A6 31 E4 
   766)     8530.6  Rx      0107  8  0F BE 0F C5 0F C1 B6 FF 
   767)     8533.6  Rx      0108  8  0F C8 0F C4 0F C0 7D A6 
   768)     8534.4  Rx      0618  8  00 01 00 64 99 13 54 00 
   769)     8536.6  Rx      0109  8  0F C7 0F C3 0F BF 5D 02 
   770)     8539.5  Rx      0615  8  17 00 56 00 00 00 00 00 
   771)     8539.6  Rx      010A  8  0F C6 0F C2 0F BE 9D AF 
   772)     8542.6  Rx      010B  8  0F C5 0F C1 0F C8 7B 9A 
   773)     8545.6  Rx      010C  8  0F C4 0F C0 0F C7 7F B6 
   774)     8548.6  Rx      010D  8  0F C3 0F BF 0F C6 A7 F3 
   775)     8551.6  Rx      010E  8  0F C2 0F BE 0F C5 A6 DF 
   776)     8553.5  Rx      0626  8  CF 0B FE 7F 24 0F 00 00 
   777)     8554.6  Rx      010F  8  0F C1 0F C8 0F C4 BC BB 
   778)     8557.6  Rx      0110  8  0F C0 00 00 00 00 F5 00 
   779)     8587.4  Rx      0626  8  8C 0B FE 7F 06 0F 00 00 
   780)     8600.4  Rx      0610  8  04 00 73 04 9D 04 55 00 
   781)     8614.5  Rx      0600  8  0A 66 01 00 00 40 00 00 
   782)     8615.6  Rx  1839F380  8  01 1A 21 1D 08 07 00 A9 
   783)     8621.4  Rx      0626  8  72 0B FE 7F DA 0E 00 00 
   784)     8635.4  Rx      0618  8  00 01 00 64 97 13 55 00 
   785)     8655.4  Rx      0626  8  A2 0B FE 7F B8 0E 00 00 
   786)     8689.5  Rx      0626  8  DB 0B FE 7F B5 0E 00 00 
   787)     8701.4  Rx      0610  8  04 00 5A 04 83 04 53 00 
   788)     8715.6  Rx  1839F380  8  01 1A 21 1D 08 07 00 A9 
   789)     8716.4  Rx      0600  8  0A 66 01 00 00 40 00 00 
   790)     8723.4  Rx      0626  8  82 0B FE 7F 8E 0E 00 00 
   791)     8736.4  Rx      0618  8  00 01 00 64 9D 13 52 00 
   792)     8757.4  Rx      0626  8  9B 0B FE 7F 61 0E 00 00 
   793)     8791.5  Rx      0626  8  BF 0B FE 7F 49 0E 00 00 
   794)     8802.4  Rx      0610  8  04 00 40 04 68 04 52 00 
   795)     8805.4  Rx      0628  8  0A 04 6F 00 20 00 00 00 
   796)     8810.5  Rx      0615  8  16 00 56 00 00 00 00 00 
   797)     8815.6  Rx  1839F380  8  01 1A 21 1D 08 07 00 A9 
   798)     8818.4  Rx      0600  8  0A 66 01 00 00 40 00 00 
   799)     8825.4  Rx      0626  8  DF 0B FE 7F 41 0E 00 00 
   800)     8837.5  Rx      0618  8  00 01 00 64 96 13 4F 00 
   801)     8859.4  Rx      0626  8  EA 0B FE 7F 27 0E 00 00 
   802)     8893.4  Rx      0626  8  B3 0B FE 7F 08 0E 00 00 
   803)     8903.4  Rx      0610  8  04 00 28 04 4F 04 50 00 
   804)     8915.6  Rx  1839F380  8  01 1A 21 1D 08 07 00 A9 
   805)     8920.5  Rx      0600  8  0A 66 01 00 00 40 00 00 
   806)     8927.4  Rx      0626  8  BD 0B FE 7F DB 0D 00 00 
   807)     8938.5  Rx      0618  8  00 01 00 64 96 13 50 00 
   808)     8961.5  Rx      0626  8  E0 0B FE 7F C3 0D 00 00 
   809)     8995.5  Rx      0626  8  E2 0B FE 7F AC 0D 00 00 
   810)     9004.4  Rx      0610  8  04 00 11 04 37 04 4F 00 
   811)     9015.6  Rx  1839F380  8  01 1A 21 1D 08 07 00 A9 
   812)     9022.5  Rx      0600  8  0A 66 01 00 00 40 00 00 
   813)     9029.4  Rx      0626  8  DC 0B FE 7F A0 0D 00 00 
   814)     9039.4  Rx      0618  8  00 01 00 64 94 13 4D 00 
   815)     9063.5  Rx      0626  8  AF 0B FE 7F 82 0D 00 00 
   816)     9097.5  Rx      0626  8  B9 0B FE 7F 6B 0D 00 00 
   817)     9099.5  Rx      0615  8  17 00 56 00 00 00 00 00 
   818)     9105.4  Rx      0610  8  04 00 FA 03 20 04 4D 00 
   819)     9115.6  Rx  1839F380  8  01 1A 21 1D 08 07 00 A9 
   820)     9124.4  Rx      0600  8  0A 66 01 00 00 40 00 00 
   821)     9131.4  Rx      0626  8  A6 0B FE 7F 46 0D 00 00 
   822)     9140.4  Rx      0618  8  00 01 00 64 9A 13 4C 00 
   823)     9165.4  Rx      0626  8  A3 0B FE 7F 2C 0D 00 00 
   824)     9183.4  Rx      0625  8  00 00 00 00 32 00 00 00 
   825)     9199.5  Rx      0626  8  DC 0B FE 7F 13 0D 00 00 
   826)     9206.4  Rx      0610  8  04 00 E4 03 09 04 4B 00 
   827)     9215.6  Rx  1839F380  8  01 1A 21 1D 08 07 00 A9 
   828)     9226.4  Rx      0600  8  0A 66 01 00 00 40 00 00 
   829)     9233.4  Rx      0626  8  FF 0B FE 7F FF 0C 00 00 
   830)     9241.4  Rx      0618  8  00 01 00 64 96 13 4B 00 
   831)     9267.4  Rx      0626  8  1C 0C FE 7F F8 0C 00 00 
   832)     9301.5  Rx      0626  8  40 0C FE 7F E0 0C 00 00 
   833)     9307.4  Rx      0610  8  04 00 CF 03 F3 03 4B 00 
   834)     9315.6  Rx  1839F380  8  01 1A 21 1D 08 07 00 A9 
   835)     9328.5  Rx      0600  8  0A 66 01 00 00 40 00 00 
   836)     9335.5  Rx      0626  8  00 0D FE 7F CC 0C 00 00 
   837)     9342.4  Rx      0618  8  00 01 00 64 9B 13 51 00 
   838)     9356.4  Rx      0620  8  0C 19 00 00 81 02 00 00 
   839)     9369.5  Rx      0626  8  2E 0E FE 7F B5 0C 00 00 
   840)     9403.4  Rx      0626  8  5E 0F FE 7F A9 0C 00 00 
   841)     9407.5  Rx      0615  8  18 00 56 00 00 00 00 00 
   842)     9408.4  Rx      0610  8  05 00 BE 03 E2 03 56 00 
   843)     9415.6  Rx  1839F380  8  01 1A 21 1D 08 07 00 A9 
   844)     9430.5  Rx      0600  8  0A 66 01 00 00 40 00 00 
   845)     9437.5  Rx      0626  8  25 11 FE 7F A9 0C 00 00 
   846)     9443.5  Rx      0618  8  00 01 00 64 85 13 6C 00 
   847)     9471.5  Rx      0626  8  21 12 FE 7F A2 0C 00 00 
   848)     9505.4  Rx      0626  8  30 12 FE 7F AA 0C 00 00 
   849)     9509.4  Rx      0610  8  06 00 BA 03 DD 03 6D 00 
   850)     9515.6  Rx  1839F380  8  01 1A 21 1D 08 07 00 A9 
   851)     9515.6  Rx      0100  8  2C 22 F9 B0 12 8E 0F 42 
   852)     9518.6  Rx      0101  8  13 88 00 17 00 5F 9B 12 
   853)     9521.6  Rx      0102  8  00 00 00 00 00 00 1B 00 
   854)     9524.6  Rx      0104  4  1C 03 71 49 
   855)     9527.6  Rx      0105  8  0B B0 0B BA 0B A6 31 E4 
   856)     9530.6  Rx      0107  8  0F BE 0F C5 0F C1 B6 FF 
   857)     9532.5  Rx      0600  8  0A 66 01 00 00 40 00 00 
   858)     9533.6  Rx      0108  8  0F C8 0F C4 0F C0 7D A6 
   859)     9536.6  Rx      0109  8  0F C7 0F C3 0F BF 5D 02 
   860)     9539.4  Rx      0626  8  55 12 FE 7F AD 0C 00 00 
   861)     9539.6  Rx      010A  8  0F C6 0F C2 0F BE 9D AF 
   862)     9542.6  Rx      010B  8  0F C5 0F C1 0F C8 7B 9A 
   863)     9544.5  Rx      0618  8  00 01 00 64 90 13 73 00 
   864)     9545.6  Rx      010C  8  0F C4 0F C0 0F C7 7F B6 
   865)     9548.6  Rx      010D  8  0F C3 0F BF 0F C6 A7 F3 
   866)     9551.6  Rx      010E  8  0F C2 0F BE 0F C5 A6 DF 
   867)     9554.6  Rx      010F  8  0F C1 0F C8 0F C4 BC BB 
   868)     9557.6  Rx      0110  8  0F C0 00 00 00 00 F5 00 
   869)     9562.4  Rx      0628  8  10 04 6F 00 20 00 00 00 
   870)     9573.4  Rx      0626  8  B4 12 FE 7F B7 0C 00 00 
   871)     9607.4  Rx      0626  8  B2 12 FE 7F BF 0C 00 00 
   872)     9610.5  Rx      0610  8  07 00 BF 03 E2 03 73 00 
   873)     9615.6  Rx  1839F380  8  01 1A 21 1D 08 07 00 A9 
   874)     9634.5  Rx      0600  8  0A 66 01 00 00 40 00 00 
   875)     9641.4  Rx      0626  8  B4 12 FE 7F C8 0C 00 00 
   876)     9645.4  Rx      0618  8  00 01 00 64 91 13 75 00 
   877)     9675.4  Rx      0626  8  C4 12 FE 7F E0 0C 00 00 
   878)     9709.5  Rx      0626  8  BA 12 FE 7F E9 0C 00 00 
   879)     9711.4  Rx      0610  8  07 00 C6 03 EA 03 75 00 
   880)     9715.6  Rx  1839F380  8  01 1A 21 1D 08 07 00 A9 
   881)     9719.5  Rx      0615  8  24 00 56 00 00 00 00 00 
   882)     9736.5  Rx      0600  8  0A 66 01 00 00 40 00 00 
   883)     9743.5  Rx      0626  8  87 12 FE 7F EB 0C 00 00 
   884)     9746.4  Rx      0618  8  00 01 00 64 8D 13 74 00 
   885)     9777.5  Rx      0626  8  84 12 FE 7F F2 0C 00 00 
   886)     9811.4  Rx      0626  8  75 12 FE 7F F6 0C 00 00 
   887)     9812.4  Rx      0610  8  07 00 CD 03 F0 03 75 00 
   888)     9815.6  Rx  1839F380  8  01 1A 21 1D 08 07 00 A9 
   889)     9838.4  Rx      0600  8  0A 66 01 00 00 40 00 00 
   890)     9845.4  Rx      0626  8  80 12 FE 7F F2 0C 00 00 
   891)     9847.4  Rx      0618  8  00 01 00 64 87 13 76 00 
   892)     9879.4  Rx      0626  8  98 12 FE 7F F8 0C 00 00 
   893)     9913.4  Rx      0610  8  07 00 D3 03 F7 03 76 00 
   894)     9913.5  Rx      0626  8  AE 12 FE 7F 03 0D 00 00 
   895)     9915.6  Rx  1839F380  8  01 1A 21 1D 08 07 00 A9 
   896)     9940.5  Rx      0600  8  0A 66 01 00 00 40 00 00 
   897)     9947.4  Rx      0626  8  AB 12 FE 7F 08 0D 00 00 
   898)     9948.4  Rx      0618  8  00 01 00 64 88 13 77 00 
   899)     9981.5  Rx      0626  8  BE 12 FE 7F 24 0D 00 00 
   900)    10014.5  Rx      0610  8  07 00 D9 03 FD 03 77 00 
   901)    10015.4  Rx      0626  8  AA 12 FE 7F 28 0D 00 00 
   902)    10015.6  Rx  1839F380  8  01 1A 21 1D 08 07 00 A9 
   903)    10025.5  Rx      0615  8  25 00 56 00 00 00 00 00 
   904)    10042.5  Rx      0600  8  0A 66 01 00 00 40 00 00 
   905)    10049.5  Rx      0618  8  00 01 00 64 86 13 77 00 
   906)    10049.6  Rx      0626  8  A6 12 FE 7F 2C 0D 00 00 
   907)    10072.5  Rx      0625  8  00 00 00 00 32 00 00 00 
   908)    10083.5  Rx      0626  8  8D 12 FE 7F 32 0D 00 00 
   909)    10115.4  Rx      0610  8  07 00 E0 03 04 04 78 00 
   910)    10115.6  Rx  1839F380  8  01 1A 21 1D 08 07 00 A9 
   911)    10117.5  Rx      0626  8  80 12 FE 7F 2D 0D 00 00 
   912)    10144.5  Rx      0600  8  0A 66 01 00 00 40 00 00 
   913)    10150.5  Rx      0618  8  00 01 00 64 87 13 78 00 
   914)    10151.4  Rx      0626  8  A0 12 FE 7F 31 0D 00 00 
   915)    10185.4  Rx      0626  8  9A 12 FE 7F 3B 0D 00 00 
   916)    10215.6  Rx  1839F380  8  01 1A 21 1D 08 07 00 A9 
   917)    10216.5  Rx      0610  8  07 00 E5 03 0A 04 78 00 
   918)    10219.5  Rx      0626  8  A8 12 FE 7F 45 0D 00 00 
   919)    10246.4  Rx      0600  8  0A 66 01 00 00 40 00 00 
   920)    10251.4  Rx      0618  8  00 01 00 64 8E 13 7A 00 
   921)    10253.4  Rx      0626  8  B7 12 FE 7F 58 0D 00 00 
   922)    10287.5  Rx      0626  8  AE 12 FE 7F 60 0D 00 00 
   923)    10315.6  Rx  1839F380  8  01 1A 21 1D 08 07 00 A9 
   924)    10317.4  Rx      0610  8  07 00 EC 03 11 04 79 00 
   925)    10319.4  Rx      0628  8  10 04 6F 00 20 00 00 00 
   926)    10321.4  Rx      0626  8  8A 12 FE 7F 5E 0D 00 00 
   927)    10325.5  Rx      0615  8  24 00 56 00 00 00 00 00 
   928)    10348.4  Rx      0600  8  0A 66 01 00 00 40 00 00 
   929)    10352.4  Rx      0618  8  00 01 00 64 8A 13 78 00 
   930)    10355.4  Rx      0626  8  70 12 FE 7F 66 0D 00 00 
   931)    10357.5  Rx      0620  8  0C 19 00 00 81 02 00 00 
   932)    10386.3  Rx      0037  3  00 00 00 
   933)    10386.8  Rx      0030  8  07 40 00 04 00 00 00 37 
   934)    10389.5  Rx      0626  8  72 12 FE 7F 63 0D 00 00 
   935)    10415.6  Rx  1839F380  8  01 1A 21 1D 08 07 00 A9 
   936)    10418.5  Rx      0610  8  07 00 F2 03 17 04 7A 00 
   937)    10423.4  Rx      0626  8  BF 12 FE 7F 6A 0D 00 00 
   938)    10450.4  Rx      0600  8  0A 66 01 00 00 40 00 00 
   939)    10453.4  Rx      0618  8  00 01 00 64 89 13 7B 00 
   940)    10457.4  Rx      0626  8  A4 12 FE 7F 75 0D 00 00 
   941)    10491.5  Rx      0626  8  C0 12 FE 7F 89 0D 00 00 
   942)    10515.6  Rx  1839F380  8  01 1A 21 1D 08 07 00 A9 
   943)    10515.6  Rx      0100  8  2B FE FA 28 12 5C 9D 93 
   944)    10518.6  Rx      0101  8  13 88 00 17 00 5E 5B D3 
   945)    10519.4  Rx      0610  8  07 00 F7 03 1C 04 7A 00 
   946)    10521.6  Rx      0102  8  00 00 00 00 00 00 1B 00 
   947)    10524.6  Rx      0104  4  1C 03 71 49 
   948)    10525.4  Rx      0626  8  97 12 FE 7F 8E 0D 00 00 
   949)    10527.6  Rx      0105  8  0B B0 0B BA 0B A6 31 E4 
   950)    10530.6  Rx      0107  8  0F B1 0F B8 0F B4 48 FA 
   951)    10533.6  Rx      0108  8  0F BB 0F B7 0F B3 88 13 
   952)    10536.6  Rx      0109  8  0F BA 0F B6 0F B2 48 BE 
   953)    10539.6  Rx      010A  8  0F B9 0F B5 0F B1 49 4A 
   954)    10542.6  Rx      010B  8  0F B8 0F B4 0F BB 4E A6 
   955)    10545.6  Rx      010C  8  0F B7 0F B3 0F BA 4E 82 
   956)    10548.6  Rx      010D  8  0F B6 0F B2 0F B9 4F AE 
   957)    10551.6  Rx      010E  8  0F B5 0F B1 0F B8 8F DB 
   958)    10552.4  Rx      0600  8  0A 66 01 00 00 40 00 00 
   959)    10554.4  Rx      0618  8  00 01 00 64 8C 13 7A 00 
   960)    10554.6  Rx      010F  8  0F B4 0F BB 0F B7 49 86 
   961)    10557.6  Rx      0110  8  0F B3 00 00 00 00 3E 05 
   962)    10559.4  Rx      0626  8  88 12 FE 7F 90 0D 00 00 
   963)    10593.4  Rx      0626  8  95 12 FE 7F 8B 0D 00 00 
   964)    10615.6  Rx  1839F380  8  01 1A 21 1D 08 07 00 A9 
   965)    10620.5  Rx      0610  8  07 00 FD 03 23 04 7B 00 
   966)    10620.6  Rx      0615  8  24 00 56 00 00 00 00 00 
   967)    10627.4  Rx      0626  8  9D 12 FE 7F 91 0D 00 00 
   968)    10654.5  Rx      0600  8  0A 66 01 00 00 40 00 00 
   969)    10655.4  Rx      0618  8  00 01 00 64 8B 13 7B 00 
   970)    10661.5  Rx      0626  8  C3 12 FE 7F 94 0D 00 00 
   971)    10695.5  Rx      0626  8  BF 12 FE 7F B1 0D 00 00 
   972)    10715.6  Rx  1839F380  8  01 1A 21 1D 08 07 00 A9 
   973)    10721.4  Rx      0610  8  07 00 02 04 28 04 7C 00 
   974)    10729.4  Rx      0626  8  AE 12 FE 7F B3 0D 00 00 
   975)    10756.5  Rx      0600  8  0A 66 01 00 00 40 00 00 
   976)    10756.6  Rx      0618  8  00 01 00 64 83 13 7D 00 
   977)    10763.4  Rx      0626  8  97 12 FE 7F B3 0D 00 00 
   978)    10797.4  Rx      0626  8  7F 12 FE 7F B0 0D 00 00 
   979)    10815.6  Rx  1839F380  8  01 1A 21 1D 08 07 00 A9 
   980)    10822.4  Rx      0610  8  07 00 08 04 2E 04 7C 00 
   981)    10831.4  Rx      0626  8  A4 12 FE 7F B3 0D 00 00 
   982)    10857.4  Rx      0618  8  00 01 00 64 85 13 7C 00 
   983)    10858.4  Rx      0600  8  0A 66 01 00 00 40 00 00 
   984)    10865.4  Rx      0626  8  A7 12 FE 7F BD 0D 00 00 
   985)    10899.4  Rx      0626  8  BD 12 FE 7F D1 0D 00 00 
   986)    10912.5  Rx      0615  8  24 00 56 00 00 00 00 00 
   987)    10915.6  Rx  1839F380  8  01 1A 21 1D 08 07 00 A9 
   988)    10923.4  Rx      0610  8  07 00 0D 04 33 04 7D 00 
   989)    10933.5  Rx      0626  8  7D 12 FE 7F D6 0D 00 00 
   990)    10958.4  Rx      0618  8  00 01 00 64 88 13 7E 00 
   991)    10960.4  Rx      0600  8  0A 66 01 00 00 40 00 00 
   992)    10961.4  Rx      0625  8  00 00 00 00 32 00 00 00 
   993)    10967.4  Rx      0626  8  78 12 FE 7F DB 0D 00 00 
   994)    11001.4  Rx      0626  8  74 12 FE 7F D0 0D 00 00 
   995)    11015.6  Rx  1839F380  8  01 1A 21 1D 08 07 00 A9 
   996)    11024.4  Rx      0610  8  07 00 12 04 39 04 7E 00 
   997)    11035.5  Rx      0626  8  9D 12 FE 7F D9 0D 00 00 
   998)    11059.4  Rx      0618  8  00 01 00 64 7E 13 7D 00 
   999)    11062.5  Rx      0600  8  0A 66 01 00 00 40 00 00 
  1000)    11069.5  Rx      0626  8  BE 12 FE 7F DF 0D 00 00 
  1001)    11076.5  Rx      0628  8  0D 04 6F 00 20 00 00 00 
  1002)    11103.4  Rx      0626  8  BA 12 FE 7F F4 0D 00 00 
  1003)    11115.6  Rx  1839F380  8  01 1A 21 1D 08 07 00 A9 
  1004)    11125.4  Rx      0610  8  07 00 17 04 3D 04 7E 00 
  1005)    11137.5  Rx      0626  8  84 12 FE 7F F1 0D 00 00 
  1006)    11160.4  Rx      0618  8  00 01 00 64 82 13 7F 00 
  1007)    11164.4  Rx      0600  8  0A 66 01 00 00 40 00 00 
  1008)    11171.5  Rx      0626  8  92 12 FE 7F EC 0D 00 00 
  1009)    11197.5  Rx      0615  8  24 00 56 00 00 00 00 00 
  1010)    11205.5  Rx      0626  8  A3 12 FE 7F F2 0D 00 00 
  1011)    11215.6  Rx  1839F380  8  01 1A 21 1D 08 07 00 A9 
  1012)    11226.5  Rx      0610  8  07 00 1C 04 42 04 7F 00 
  1013)    11239.4  Rx      0626  8  A0 12 FE 7F F7 0D 00 00 
  1014)    11261.4  Rx      0618  8  00 01 00 64 85 13 80 00 
  1015)    11266.5  Rx      0600  8  0A 66 01 00 00 40 00 00 
  1016)    11273.4  Rx      0626  8  BD 12 FE 7F 0F 0E 00 00 
  1017)    11307.4  Rx      0626  8  7F 12 FE 7F 0D 0E 00 00 
  1018)    11315.6  Rx  1839F380  8  01 1A 21 1D 08 07 00 A9 
  1019)    11327.4  Rx      0610  8  07 00 20 04 47 04 7F 00 
  1020)    11341.5  Rx      0626  8  79 12 FE 7F 0A 0E 00 00 
  1021)    11358.4  Rx      0620  8  0C 19 00 00 81 02 00 00 
  1022)    11362.4  Rx      0618  8  00 01 00 64 82 13 7F 00 
  1023)    11368.4  Rx      0600  8  0A 66 01 00 00 40 00 00 
  1024)    11375.4  Rx      0626  8  AE 12 FE 7F 0F 0E 00 00 
  1025)    11409.4  Rx      0626  8  B6 12 FE 7F 15 0E 00 00 
  1026)    11415.6  Rx  1839F380  8  01 1A 21 1D 08 07 00 A9 
  1027)    11428.4  Rx      0610  8  07 00 25 04 4C 04 80 00 
  1028)    11443.5  Rx      0626  8  CA 12 FE 7F 2C 0E 00 00 
  1029)    11463.5  Rx      0618  8  00 01 00 64 83 13 81 00 
  1030)    11470.5  Rx      0600  8  0A 66 01 00 00 40 00 00 
  1031)    11477.4  Rx      0626  8  8E 12 FE 7F 2B 0E 00 00 
  1032)    11481.5  Rx      0615  8  25 00 56 00 00 00 00 00 
  1033)    11511.4  Rx      0626  8  76 12 FE 7F 22 0E 00 00 
  1034)    11515.6  Rx  1839F380  8  01 1A 21 1D 08 07 00 A9 
  1035)    11515.6  Rx      0100  8  2B FE FA B2 12 5C B2 B3 
  1036)    11518.6  Rx      0101  8  13 88 00 17 00 5E 5B D3 
  1037)    11521.6  Rx      0102  8  00 00 00 00 00 00 1B 00 
  1038)    11524.6  Rx      0104  4  1C 03 71 49 
  1039)    11527.6  Rx      0105  8  0B B0 0B BA 0B A6 31 E4 
  1040)    11529.5  Rx      0610  8  07 00 2A 04 51 04 80 00 
  1041)    11530.6  Rx      0107  8  0F B1 0F B8 0F B4 48 FA 
  1042)    11533.6  Rx      0108  8  0F BB 0F B7 0F B3 88 13 
  1043)    11536.6  Rx      0109  8  0F BA 0F B6 0F B2 48 BE 
  1044)    11539.6  Rx      010A  8  0F B9 0F B5 0F B1 49 4A 
  1045)    11542.6  Rx      010B  8  0F B8 0F B4 0F BB 4E A6 
  1046)    11545.4  Rx      0626  8  BC 12 FE 7F 26 0E 00 00 
  1047)    11545.6  Rx      010C  8  0F B7 0F B3 0F BA 4E 82 
  1048)    11548.6  Rx      010D  8  0F B6 0F B2 0F B9 4F AE 
  1049)    11551.6  Rx      010E  8  0F B5 0F B1 0F B8 8F DB 
  1050)    11554.6  Rx      010F  8  0F B4 0F BB 0F B7 49 86 
  1051)    11557.6  Rx      0110  8  0F B3 00 00 00 00 3E 05 
  1052)    11564.5  Rx      0618  8  00 01 00 64 86 13 80 00 
  1053)    11572.4  Rx      0600  8  0A 66 01 00 00 40 00 00 
  1054)    11579.4  Rx      0626  8  D4 12 FE 7F 43 0E 00 00 
  1055)    11613.4  Rx      0626  8  77 12 FE 7F 41 0E 00 00 
  1056)    11615.6  Rx  1839F380  8  01 1A 21 1D 08 07 00 A9 
  1057)    11630.4  Rx      0610  8  07 00 2E 04 55 04 81 00 
  1058)    11647.5  Rx      0626  8  89 12 FE 7F 43 0E 00 00 
  1059)    11665.4  Rx      0618  8  00 01 00 64 8D 13 82 00 
  1060)    11674.4  Rx      0600  8  0A 66 01 00 00 40 00 00 
  1061)    11681.4  Rx      0626  8  8B 12 FE 7F 3A 0E 00 00 
  1062)    11715.4  Rx      0626  8  AE 12 FE 7F 46 0E 00 00 
  1063)    11715.6  Rx  1839F380  8  01 1A 21 1D 08 07 00 A9 
  1064)    11731.5  Rx      0610  8  07 00 33 04 5A 04 81 00 
  1065)    11749.5  Rx      0626  8  B0 12 FE 7F 56 0E 00 00 
  1066)    11760.5  Rx      0615  8  24 00 56 00 00 00 00 00 
  1067)    11766.4  Rx      0618  8  00 01 00 64 88 13 81 00 
  1068)    11776.4  Rx      0600  8  0A 66 01 00 00 40 00 00 
  1069)    11783.4  Rx      0626  8  7E 12 FE 7F 59 0E 00 00 
  1070)    11815.6  Rx  1839F380  8  01 1A 21 1D 08 07 00 A9 
  1071)    11817.4  Rx      0626  8  88 12 FE 7F 4F 0E 00 00 
  1072)    11832.4  Rx      0610  8  07 00 37 04 5E 04 82 00 
  1073)    11833.4  Rx      0628  8  07 04 6F 00 20 00 00 00 
  1074)    11850.4  Rx      0625  8  00 00 00 00 32 00 00 00 
  1075)    11851.4  Rx      0626  8  BA 12 FE 7F 56 0E 00 00 
  1076)    11867.4  Rx      0618  8  00 01 00 64 88 13 81 00 
  1077)    11878.4  Rx      0600  8  0A 66 01 00 00 40 00 00 
  1078)    11885.4  Rx      0626  8  B2 12 FE 7F 5C 0E 00 00 
  1079)    11915.6  Rx  1839F380  8  01 1A 21 1D 08 07 00 A9 
  1080)    11919.4  Rx      0626  8  9C 12 FE 7F 6F 0E 00 00 
  1081)    11933.4  Rx      0610  8  07 00 3B 04 63 04 82 00 
  1082)    11953.4  Rx      0626  8  96 12 FE 7F 6A 0E 00 00 
  1083)    11968.4  Rx      0618  8  00 01 00 64 85 13 85 00 
  1084)    11980.5  Rx      0600  8  0A 66 01 00 00 40 00 00 
  1085)    11987.4  Rx      0626  8  96 12 FE 7F 68 0E 00 00 
  1086)    12015.6  Rx  1839F380  8  01 1A 21 1D 08 07 00 A9 
  1087)    12021.4  Rx      0626  8  D7 12 FE 7F 6F 0E 00 00 
  1088)    12034.4  Rx      0610  8  07 00 3F 04 67 04 84 00 
  1089)    12036.5  Rx      0615  8  24 00 56 00 00 00 00 00 
  1090)    12055.5  Rx      0626  8  ED 12 FE 7F 86 0E 00 00 
  1091)    12069.4  Rx      0618  8  00 01 00 64 85 13 84 00 
  1092)    12082.5  Rx      0600  8  0A 66 01 00 00 40 00 00 
  1093)    12089.4  Rx      0626  8  9C 12 FE 7F 83 0E 00 00 
  1094)    12115.6  Rx  1839F380  8  01 1A 21 1D 08 07 00 A9 
  1095)    12123.5  Rx      0626  8  A8 12 FE 7F 78 0E 00 00 
  1096)    12135.5  Rx      0610  8  07 00 43 04 6C 04 84 00 
  1097)    12157.5  Rx      0626  8  D0 12 FE 7F 81 0E 00 00 
  1098)    12170.4  Rx      0618  8  00 01 00 64 85 13 84 00 
  1099)    12184.4  Rx      0600  8  0A 66 01 00 00 40 00 00 
  1100)    12191.5  Rx      0626  8  0B 13 FE 7F 98 0E 00 00 
  1101)    12215.6  Rx  1839F380  8  01 1A 21 1D 08 07 00 A9 
  1102)    12225.5  Rx      0626  8  BD 12 FE 7F 96 0E 00 00 
  1103)    12236.4  Rx      0610  8  07 00 48 04 70 04 85 00 
  1104)    12259.4  Rx      0626  8  E3 12 FE 7F 92 0E 00 00 
  1105)    12271.5  Rx      0618  8  00 01 00 64 85 13 8C 00 
  1106)    12286.4  Rx      0600  8  0A 66 01 00 00 40 00 00 
  1107)    12293.4  Rx      0626  8  B8 13 FE 7F 97 0E 00 00 
  1108)    12310.5  Rx      0615  8  25 00 56 00 00 00 00 00 
  1109)    12315.6  Rx  1839F380  8  01 1A 21 1D 08 07 00 A9 
  1110)    12327.5  Rx      0626  8  16 14 FE 7F B5 0E 00 00 
  1111)    12337.5  Rx      0610  8  07 00 4E 04 77 04 8B 00 
  1112)    12359.5  Rx      0620  8  0C 19 00 00 81 02 00 00 
  1113)    12361.5  Rx      0626  8  F0 13 FE 7F BC 0E 00 00 
  1114)    12372.4  Rx      0618  8  00 01 00 64 7F 13 92 00 
  1115)    12387.0  Rx      0037  3  00 00 00 
  1116)    12387.6  Rx      0030  8  07 40 00 04 00 00 00 38 
  1117)    12388.4  Rx      0600  8  0A 66 01 00 00 40 00 00 
  1118)    12395.4  Rx      0626  8  21 14 FE 7F B7 0E 00 00 
  1119)    12415.6  Rx  1839F380  8  01 1A 21 1D 08 07 00 A9 
  1120)    12429.5  Rx      0626  8  90 14 FE 7F C7 0E 00 00 
  1121)    12438.4  Rx      0610  8  07 00 57 04 80 04 91 00 
  1122)    12463.5  Rx      0626  8  B0 14 FE 7F E1 0E 00 00 
  1123)    12473.4  Rx      0618  8  00 01 00 64 80 13 94 00 
  1124)    12490.5  Rx      0600  8  0A 66 01 00 00 40 00 00 
  1125)    12497.5  Rx      0626  8  8B 14 FE 7F E7 0E 00 00 
  1126)    12515.6  Rx  1839F380  8  01 1A 21 1D 08 07 00 A9 
  1127)    12515.6  Rx      0100  8  2B FE FB 46 12 5C BC F3 
  1128)    12518.6  Rx      0101  8  13 88 00 17 00 5E 5B D3 
  1129)    12521.6  Rx      0102  8  00 00 00 00 02 00 7B 01 
  1130)    12524.6  Rx      0104  4  1C 03 71 49 
  1131)    12527.6  Rx      0105  8  0B B0 0B BA 0B A6 31 E4 
  1132)    12530.6  Rx      0107  8  0F B1 0F B8 0F B4 48 FA 
  1133)    12531.4  Rx      0626  8  D1 14 FE 7F E8 0E 00 00 
  1134)    12533.6  Rx      0108  8  0F BB 0F B7 0F B3 88 13 
  1135)    12536.6  Rx      0109  8  0F BA 0F B6 0F B2 48 BE 
  1136)    12539.4  Rx      0610  8  08 00 61 04 8A 04 96 00 
  1137)    12539.6  Rx      010A  8  0F B9 0F B5 0F B1 49 4A 
  1138)    12542.6  Rx      010B  8  0F B8 0F B4 0F BB 4E A6 
  1139)    12545.6  Rx      010C  8  0F B7 0F B3 0F BA 4E 82 
  1140)    12548.6  Rx      010D  8  0F B6 0F B2 0F B9 4F AE 
  1141)    12551.6  Rx      010E  8  0F B5 0F B1 0F B8 8F DB 
  1142)    12554.6  Rx      010F  8  0F B4 0F BB 0F B7 49 86 
  1143)    12557.6  Rx      0110  8  0F B3 00 00 00 00 3E 05 
  1144)    12565.4  Rx      0626  8  6C 15 FE 7F F8 0E 00 00 
  1145)    12574.4  Rx      0618  8  00 01 00 64 85 13 9A 00 
  1146)    12578.5  Rx      0615  8  28 00 56 00 00 00 00 00 
  1147)    12590.4  Rx      0628  8  0A 04 6F 00 20 00 00 00 
  1148)    12592.4  Rx      0600  8  0A 66 01 00 00 40 00 00 
  1149)    12599.4  Rx      0626  8  2F 15 FE 7F 17 0F 00 00 
  1150)    12615.6  Rx  1839F380  8  01 1A 21 1D 08 07 00 A9 
  1151)    12633.5  Rx      0626  8  38 15 FE 7F 15 0F 00 00 
  1152)    12640.4  Rx      0610  8  08 00 6D 04 97 04 9B 00 
  1153)    12667.4  Rx      0626  8  8E 15 FE 7F 24 0F 00 00 
  1154)    12675.4  Rx      0618  8  00 01 00 64 86 13 A0 00 
  1155)    12694.5  Rx      0600  8  0A 66 01 00 00 40 00 00 
  1156)    12701.4  Rx      0626  8  8E 15 FE 7F 47 0F 00 00 
  1157)    12715.6  Rx  1839F380  8  01 1A 21 1D 08 07 00 A9 
  1158)    12735.4  Rx      0626  8  4A 15 FE 7F 4D 0F 00 00 
  1159)    12739.3  Rx      0625  8  00 00 00 00 32 00 00 00 
  1160)    12741.4  Rx      0610  8  08 00 7B 04 A5 04 9F 00 
  1161)    12769.4  Rx      0626  8  A4 15 FE 7F 56 0F 00 00 
  1162)    12776.4  Rx      0618  8  00 01 00 64 7C 13 A3 00 
  1163)    12796.4  Rx      0600  8  0A 66 01 00 00 40 00 00 
  1164)    12803.4  Rx      0626  8  BA 15 FE 7F 75 0F 00 00 
  1165)    12815.6  Rx  1839F380  8  01 1A 21 1D 08 07 00 A9 
  1166)    12837.4  Rx      0626  8  5C 15 FE 7F 7F 0F 00 00 
  1167)    12839.4  Rx      0615  8  2A 00 56 00 00 00 00 00 
  1168)    12842.4  Rx      0610  8  08 00 88 04 B2 04 A1 00 
  1169)    12871.4  Rx      0626  8  AB 15 FE 7F 7D 0F 00 00 
  1170)    12877.5  Rx      0618  8  00 01 00 64 79 13 A5 00 
  1171)    12898.5  Rx      0600  8  0A 66 01 00 00 40 00 00 
  1172)    12905.4  Rx      0626  8  B0 15 FE 7F A2 0F 00 00 
  1173)    12915.6  Rx  1839F380  8  01 1A 21 1D 08 07 00 A9 
  1174)    12939.4  Rx      0626  8  68 15 FE 7F AC 0F 00 00 
  1175)    12943.5  Rx      0610  8  08 00 95 04 C0 04 A3 00 
  1176)    12973.5  Rx      0626  8  97 15 FE 7F AD 0F 00 00 
  1177)    12978.5  Rx      0618  8  00 01 00 64 7B 13 A6 00 
  1178)    13000.5  Rx      0600  8  0A 66 01 00 00 40 00 00 
  1179)    13007.4  Rx      0626  8  BB 15 FE 7F CD 0F 00 00 
  1180)    13015.6  Rx  1839F380  8  01 1A 21 1D 08 07 00 A9 
  1181)    13041.5  Rx      0626  8  62 15 FE 7F D4 0F 00 00 
  1182)    13044.4  Rx      0610  8  08 00 A2 04 CE 04 A5 00 
  1183)    13075.5  Rx      0626  8  84 15 FE 7F DB 0F 00 00 
  1184)    13079.4  Rx      0618  8  00 01 00 64 7B 13 A9 00 
  1185)    13092.5  Rx      0615  8  2A 00 56 00 00 00 00 00 
  1186)    13102.5  Rx      0600  8  0A 66 01 00 00 40 00 00 
  1187)    13109.4  Rx      0626  8  A6 15 FE 7F FA 0F 00 00 
  1188)    13115.6  Rx  1839F380  8  01 1A 21 1D 08 07 00 A9 
  1189)    13143.4  Rx      0626  8  67 15 FE 7F F8 0F 00 00 
  1190)    13145.5  Rx      0610  8  08 00 AF 04 DB 04 A7 00 
  1191)    13177.5  Rx      0626  8  AA 15 FE 7F 05 10 00 00 
  1192)    13180.4  Rx      0618  8  00 01 00 64 78 13 AB 00 
  1193)    13204.4  Rx      0600  8  0A 66 01 00 00 40 00 00 
  1194)    13211.5  Rx      0626  8  66 15 FE 7F 21 10 00 00 
  1195)    13215.6  Rx  1839F380  8  01 1A 21 1D 08 07 00 A9 
  1196)    13245.4  Rx      0626  8  7A 15 FE 7F 21 10 00 00 
  1197)    13246.5  Rx      0610  8  08 00 BC 04 E8 04 A9 00 
  1198)    13279.5  Rx      0626  8  C7 15 FE 7F 40 10 00 00 
  1199)    13281.5  Rx      0618  8  00 01 00 64 7A 13 AC 00 
  1200)    13306.5  Rx      0600  8  0A 66 01 00 00 40 00 00 
  1201)    13313.4  Rx      0626  8  5A 15 FE 7F 4B 10 00 00 
  1202)    13315.6  Rx  1839F380  8  01 1A 21 1D 08 07 00 A9 
  1203)    13338.5  Rx      0615  8  29 00 56 00 00 00 00 00 
  1204)    13347.4  Rx      0610  8  08 00 C8 04 F5 04 AA 00 
  1205)    13347.5  Rx      0626  8  A7 15 FE 7F 4C 10 00 00 
  1206)    13347.7  Rx      0628  8  0A 04 6F 00 20 00 00 00 
  1207)    13360.4  Rx      0620  8  0D 19 00 00 81 02 00 00 
  1208)    13381.4  Rx      0626  8  61 15 FE 7F 6A 10 00 00 
  1209)    13382.4  Rx      0618  8  00 01 00 64 75 13 AB 00 
  1210)    13408.4  Rx      0600  8  0A 66 01 00 00 40 00 00 
  1211)    13415.4  Rx      0626  8  59 15 FE 7F 68 10 00 00 
  1212)    13415.6  Rx  1839F380  8  01 1A 21 1D 08 07 00 A9 
  1213)    13448.4  Rx      0610  8  08 00 D4 04 01 05 AC 00 
  1214)    13449.4  Rx      0626  8  F3 15 FE 7F 8B 10 00 00 
  1215)    13483.5  Rx      0618  8  00 01 00 64 7B 13 AD 00 
  1216)    13483.6  Rx      0626  8  69 15 FE 7F 8D 10 00 00 
  1217)    13510.5  Rx      0600  8  0A 66 01 00 00 40 00 00 
  1218)    13515.6  Rx  1839F380  8  01 1A 21 1D 08 07 00 A9 
  1219)    13515.6  Rx      0100  8  2B FE FB DB 12 5C 52 62 
  1220)    13517.4  Rx      0626  8  A9 15 FE 7F 8E 10 00 00 
  1221)    13518.6  Rx      0101  8  13 88 00 17 00 5E 5B D3 
  1222)    13521.6  Rx      0102  8  00 00 00 00 02 00 7B 01 
  1223)    13524.6  Rx      0104  4  1C 03 71 49 
  1224)    13527.6  Rx      0105  8  0B B0 0B BA 0B A6 31 E4 
  1225)    13530.6  Rx      0107  8  0F B1 0F B8 0F B4 48 FA 
  1226)    13533.6  Rx      0108  8  0F BB 0F B7 0F B3 88 13 
  1227)    13536.6  Rx      0109  8  0F BA 0F B6 0F B2 48 BE 
  1228)    13539.6  Rx      010A  8  0F B9 0F B5 0F B1 49 4A 
  1229)    13542.6  Rx      010B  8  0F B8 0F B4 0F BB 4E A6 
  1230)    13545.6  Rx      010C  8  0F B7 0F B3 0F BA 4E 82 
  1231)    13548.6  Rx      010D  8  0F B6 0F B2 0F B9 4F AE 
  1232)    13549.4  Rx      0610  8  08 00 E0 04 0E 05 AE 00 
  1233)    13551.4  Rx      0626  8  68 15 FE 7F A8 10 00 00 
  1234)    13551.6  Rx      010E  8  0F B5 0F B1 0F B8 8F DB 
  1235)    13554.6  Rx      010F  8  0F B4 0F BB 0F B7 49 86 
  1236)    13557.6  Rx      0110  8  0F B3 00 00 00 00 3E 05 
  1237)    13579.5  Rx      0615  8  2A 00 56 00 00 00 00 00 
  1238)    13584.4  Rx      0618  8  00 01 00 64 7F 13 AE 00 
  1239)    13585.4  Rx      0626  8  7D 15 FE 7F AA 10 00 00 
  1240)    13612.5  Rx      0600  8  0A 66 01 00 00 40 00 00 
  1241)    13615.6  Rx  1839F380  8  01 1A 21 1D 08 07 00 A9 
  1242)    13619.4  Rx      0626  8  CF 15 FE 7F CA 10 00 00 
  1243)    13628.4  Rx      0625  8  00 00 00 00 32 00 00 00 
  1244)    13650.4  Rx      0610  8  08 00 EC 04 1A 05 AF 00 
  1245)    13653.4  Rx      0626  8  4B 15 FE 7F C3 10 00 00 
  1246)    13685.4  Rx      0618  8  00 01 00 64 76 13 B2 00 
  1247)    13687.4  Rx      0626  8  C5 15 FE 7F E4 10 00 00 
  1248)    13714.4  Rx      0600  8  0A 66 01 00 00 40 00 00 
  1249)    13715.6  Rx  1839F380  8  01 1A 21 1D 08 07 00 A9 
  1250)    13721.5  Rx      0626  8  39 15 FE 7F E8 10 00 00 
  1251)    13751.5  Rx      0610  8  08 00 F7 04 25 05 B1 00 
  1252)    13755.4  Rx      0626  8  9D 15 FE 7F EE 10 00 00 
  1253)    13786.4  Rx      0618  8  00 01 00 64 79 13 B1 00 
  1254)    13789.4  Rx      0626  8  61 15 FE 7F 04 11 00 00 
  1255)    13815.5  Rx      0615  8  2A 00 56 00 00 00 00 00 
  1256)    13815.6  Rx  1839F380  8  01 1A 21 1D 08 07 00 A9 
  1257)    13816.4  Rx      0600  8  0A 66 01 00 00 40 00 00 
  1258)    13823.4  Rx      0626  8  A6 15 FE 7F 02 11 00 00 
  1259)    13852.4  Rx      0610  8  08 00 02 05 31 05 B2 00 
  1260)    13857.4  Rx      0626  8  6B 15 FE 7F 1F 11 00 00 
  1261)    13887.4  Rx      0618  8  00 01 00 64 7D 13 B3 00 
  1262)    13891.4  Rx      0626  8  97 15 FE 7F 22 11 00 00 
  1263)    13915.6  Rx  1839F380  8  01 1A 21 1D 08 07 00 A9 
  1264)    13918.5  Rx      0600  8  0A 66 01 00 00 40 00 00 
  1265)    13925.4  Rx      0626  8  D1 15 FE 7F 3A 11 00 00 
  1266)    13953.4  Rx      0610  8  08 00 0D 05 3C 05 B4 00 
  1267)    13959.4  Rx      0626  8  47 15 FE 7F 35 11 00 00 
  1268)    13988.3  Rx      0618  8  00 01 00 64 6E 13 B6 00 
  1269)    13993.4  Rx      0626  8  D2 15 FE 7F 57 11 00 00 
  1270)    14015.6  Rx  1839F380  8  01 1A 21 1D 08 07 00 A9 
  1271)    14020.4  Rx      0600  8  0A 66 01 00 00 40 00 00 
  1272)    14027.4  Rx      0626  8  48 15 FE 7F 4E 11 00 00 
  1273)    14046.4  Rx      0615  8  2A 00 56 00 00 00 00 00 
  1274)    14054.4  Rx      0610  8  08 00 17 05 47 05 B5 00 
  1275)    14061.4  Rx      0626  8  C9 15 FE 7F 68 11 00 00 
  1276)    14089.4  Rx      0618  8  00 01 00 64 82 13 B6 00 
  1277)    14095.4  Rx      0626  8  42 15 FE 7F 64 11 00 00 
  1278)    14104.4  Rx      0628  8  0D 04 6F 00 20 00 00 00 
  1279)    14115.6  Rx  1839F380  8  01 1A 21 1D 08 07 00 A9 
  1280)    14122.4  Rx      0600  8  0A 66 01 00 00 40 00 00 
  1281)    14129.4  Rx      0626  8  C6 15 FE 7F 83 11 00 00 
  1282)    14155.4  Rx      0610  8  08 00 22 05 52 05 B7 00 
  1283)    14163.4  Rx      0626  8  2F 15 FE 7F 7C 11 00 00 
  1284)    14190.4  Rx      0618  8  00 01 00 64 71 13 BA 00 
  1285)    14197.4  Rx      0626  8  B9 15 FE 7F 98 11 00 00 
  1286)    14215.6  Rx  1839F380  8  01 1A 21 1D 08 07 00 A9 
  1287)    14224.4  Rx      0600  8  0A 66 01 00 00 40 00 00 
  1288)    14231.4  Rx      0626  8  3C 15 FE 7F 96 11 00 00 
  1289)    14256.4  Rx      0610  8  08 00 2C 05 5D 05 B8 00 
  1290)    14265.4  Rx      0626  8  E4 15 FE 7F B5 11 00 00 
  1291)    14273.4  Rx      0615  8  2A 00 56 00 00 00 00 00 
  1292)    14291.3  Rx      0618  8  00 01 00 64 77 13 B8 00 
  1293)    14299.4  Rx      0626  8  5A 15 FE 7F AB 11 00 00 
  1294)    14315.6  Rx  1839F380  8  01 1A 21 1D 08 07 00 A9 
  1295)    14326.3  Rx      0600  8  0A 66 01 00 00 40 00 00 
  1296)    14333.4  Rx      0626  8  D0 15 FE 7F C9 11 00 00 
  1297)    14357.4  Rx      0610  8  08 00 37 05 68 05 BA 00 
  1298)    14361.4  Rx      0620  8  0D 19 00 00 81 02 00 00 
  1299)    14367.4  Rx      0626  8  5C 15 FE 7F C9 11 00 00 
  1300)    14388.4  Rx      0037  3  00 00 00 
  1301)    14388.8  Rx      0030  8  07 40 00 04 00 00 00 39 
  1302)    14392.4  Rx      0618  8  00 01 00 64 6B 13 BC 00 
  1303)    14401.4  Rx      0626  8  CE 15 FE 7F E2 11 00 00 
  1304)    14415.6  Rx  1839F380  8  01 1A 21 1D 08 07 00 A9 
  1305)    14428.4  Rx      0600  8  0A 66 01 00 00 40 00 00 
  1306)    14435.4  Rx      0626  8  7A 15 FE 7F DD 11 00 00 
  1307)    14458.4  Rx      0610  8  08 00 42 05 73 05 BB 00 
  1308)    14469.4  Rx      0626  8  7D 15 FE 7F FB 11 00 00 
  1309)    14493.4  Rx      0618  8  00 01 00 64 7A 13 BB 00 
  1310)    14497.4  Rx      0615  8  29 00 56 00 00 00 00 00 
  1311)    14503.4  Rx      0626  8  97 15 FE 7F F6 11 00 00 
  1312)    14515.6  Rx  1839F380  8  01 1A 21 1D 08 07 00 A9 
  1313)    14515.6  Rx      0100  8  2B FE FC 67 12 5C C2 A2 
  1314)    14517.4  Rx      0625  8  00 00 00 00 32 00 00 00 
  1315)    14518.6  Rx      0101  8  13 88 00 17 00 5E 5B D3 
  1316)    14521.6  Rx      0102  8  00 00 00 00 02 00 7B 01 
  1317)    14524.6  Rx      0104  4  1C 03 71 49 
  1318)    14527.6  Rx      0105  8  0B B0 0B BA 0B A6 31 E4 
  1319)    14530.4  Rx      0600  8  0A 66 01 00 00 40 00 00 
  1320)    14530.6  Rx      0107  8  0F B1 0F B8 0F B4 48 FA 
  1321)    14533.6  Rx      0108  8  0F BB 0F B7 0F B3 88 13 
  1322)    14536.6  Rx      0109  8  0F BA 0F B6 0F B2 48 BE 
  1323)    14537.4  Rx      0626  8  6A 15 FE 7F 11 12 00 00 
  1324)    14539.6  Rx      010A  8  0F B9 0F B5 0F B1 49 4A 
  1325)    14542.6  Rx      010B  8  0F B8 0F B4 0F BB 4E A6 
  1326)    14545.6  Rx      010C  8  0F B7 0F B3 0F BA 4E 82 
  1327)    14548.6  Rx      010D  8  0F B6 0F B2 0F B9 4F AE 
  1328)    14551.6  Rx      010E  8  0F B5 0F B1 0F B8 8F DB 
  1329)    14554.6  Rx      010F  8  0F B4 0F BB 0F B7 49 86 
  1330)    14557.6  Rx      0110  8  0F B3 00 00 00 00 3E 05 
  1331)    14559.4  Rx      0610  8  08 00 4C 05 7E 05 BC 00 
  1332)    14571.4  Rx      0626  8  7E 15 FE 7F 11 12 00 00 
  1333)    14594.4  Rx      0618  8  00 01 00 64 6E 13 BF 00 
  1334)    14605.4  Rx      0626  8  58 15 FE 7F 26 12 00 00 
  1335)    14615.6  Rx  1839F380  8  01 1A 21 1D 08 07 00 A9 
  1336)    14632.4  Rx      0600  8  0A 66 01 00 00 40 00 00 
  1337)    14639.3  Rx      0626  8  8F 15 FE 7F 27 12 00 00 
  1338)    14660.4  Rx      0610  8  08 00 56 05 88 05 BE 00 
  1339)    14673.4  Rx      0626  8  46 15 FE 7F 34 12 00 00 
  1340)    14695.4  Rx      0618  8  00 01 00 64 7D 13 BF 00 
  1341)    14707.4  Rx      0626  8  F1 15 FE 7F 4F 12 00 00 
  1342)    14715.6  Rx  1839F380  8  01 1A 21 1D 08 07 00 A9 
  1343)    14716.4  Rx      0615  8  2A 00 56 00 00 00 00 00 
  1344)    14734.4  Rx      0600  8  0A 66 01 00 00 40 00 00 
  1345)    14741.4  Rx      0626  8  32 15 FE 7F 48 12 00 00 
  1346)    14761.3  Rx      0610  8  08 00 61 05 93 05 BF 00 
  1347)    14775.3  Rx      0626  8  57 15 FE 7F 6A 12 00 00 
  1348)    14796.4  Rx      0618  8  00 01 00 64 73 13 C5 00 
  1349)    14809.4  Rx      0626  8  B0 15 FE 7F 61 12 00 00 
  1350)    14815.6  Rx  1839F380  8  01 1A 21 1D 08 07 00 A9 
  1351)    14836.4  Rx      0600  8  0A 66 01 00 00 40 00 00 
  1352)    14843.4  Rx      0626  8  47 15 FE 7F 75 12 00 00 
  1353)    14861.4  Rx      0628  8  0A 04 6F 00 21 00 00 00 
  1354)    14862.4  Rx      0610  8  08 00 6B 05 9E 05 C1 00 
  1355)    14877.4  Rx      0626  8  A4 15 FE 7F 77 12 00 00 
  1356)    14897.4  Rx      0618  8  00 01 00 64 70 13 C3 00 
  1357)    14911.4  Rx      0626  8  49 15 FE 7F 83 12 00 00 
  1358)    14915.6  Rx  1839F380  8  01 1A 21 1D 08 07 00 A9 
  1359)    14932.4  Rx      0615  8  2A 00 56 00 00 00 00 00 
  1360)    14938.4  Rx      0600  8  0A 66 01 00 00 40 00 00 
  1361)    14945.3  Rx      0626  8  E4 15 FE 7F 9D 12 00 00 
  1362)    14963.4  Rx      0610  8  08 00 74 05 A8 05 C2 00 
  1363)    14979.4  Rx      0626  8  3A 15 FE 7F 98 12 00 00 
  1364)    14998.4  Rx      0618  8  00 01 00 64 7B 13 C2 00 
  1365)    15013.4  Rx      0626  8  7A 15 FE 7F B2 12 00 00 
  1366)    15015.6  Rx  1839F380  8  01 1B 22 1E 08 07 00 AC 
  1367)    15040.3  Rx      0600  8  0A 66 01 00 00 40 00 00 
  1368)    15047.4  Rx      0626  8  A4 15 FE 7F AD 12 00 00 
  1369)    15064.4  Rx      0610  8  08 00 7F 05 B2 05 C3 00 
  1370)    15081.3  Rx      0626  8  50 15 FE 7F C5 12 00 00 
  1371)    15099.4  Rx      0618  8  00 01 00 64 79 13 C3 00 
  1372)    15115.4  Rx      0626  8  EF 15 FE 7F D0 12 00 00 
  1373)    15115.6  Rx  1839F380  8  01 1B 22 1E 08 07 00 AC 
  1374)    15142.4  Rx      0600  8  0A 66 01 00 00 40 00 00 
  1375)    15144.4  Rx      0615  8  29 00 56 00 00 00 00 00 
  1376)    15149.4  Rx      0626  8  36 15 FE 7F CC 12 00 00 
  1377)    15165.4  Rx      0610  8  08 00 88 05 BB 05 C5 00 
  1378)    15183.4  Rx      0626  8  47 15 FE 7F E1 12 00 00 
  1379)    15200.4  Rx      0618  8  00 01 00 64 74 13 C9 00 
  1380)    15215.6  Rx  1839F380  8  01 1B 22 1E 08 07 00 AC 
  1381)    15217.4  Rx      0626  8  93 15 FE 7F E1 12 00 00 
  1382)    15244.4  Rx      0600  8  0A 66 01 00 00 40 00 00 
  1383)    15251.3  Rx      0626  8  50 15 FE 7F E8 12 00 00 
  1384)    15266.4  Rx      0610  8  08 00 90 05 C4 05 C6 00 
  1385)    15285.3  Rx      0626  8  E3 15 FE 7F 09 13 00 00 
  1386)    15301.4  Rx      0618  8  00 01 00 64 6A 13 C9 00 
  1387)    15315.6  Rx  1839F380  8  01 1B 22 1E 08 07 00 AC 
  1388)    15319.4  Rx      0626  8  A9 15 FE 7F FD 12 00 00 
  1389)    15346.4  Rx      0600  8  0A 66 01 00 00 40 00 00 
  1390)    15353.3  Rx      0626  8  54 15 FE 7F 15 13 00 00 
  1391)    15354.4  Rx      0615  8  2A 00 56 00 00 00 00 00 
  1392)    15362.4  Rx      0620  8  0E 19 00 00 81 02 00 00 
  1393)    15367.3  Rx      0610  8  08 00 99 05 CD 05 C7 00 
  1394)    15387.4  Rx      0626  8  FC 15 FE 7F 26 13 00 00 
  1395)    15402.4  Rx      0618  8  00 01 00 64 66 13 C9 00 
  1396)    15406.4  Rx      0625  8  00 00 00 00 32 00 00 00 
  1397)    15415.6  Rx  1839F380  8  01 1B 22 1E 08 07 00 AC 
  1398)    15421.4  Rx      0626  8  5B 15 FE 7F 1B 13 00 00 
  1399)    15448.3  Rx      0600  8  0A 66 01 00 00 40 00 00 
  1400)    15455.4  Rx      0626  8  54 15 FE 7F 31 13 00 00 
  1401)    15468.4  Rx      0610  8  08 00 A2 05 D7 05 C8 00 
  1402)    15489.4  Rx      0626  8  FF 15 FE 7F 31 13 00 00 
  1403)    15503.4  Rx      0618  8  00 01 00 64 6D 13 C7 00 
  1404)    15515.6  Rx  1839F380  8  01 1B 22 1E 08 07 00 AC 
  1405)    15515.6  Rx      0100  8  2B FE FC E2 12 5C 2B B3 
  1406)    15518.6  Rx      0101  8  13 88 00 17 00 5E 5B D3 
  1407)    15521.6  Rx      0102  8  00 00 00 00 02 00 7B 01 
  1408)    15523.4  Rx      0626  8  37 15 FE 7F 3E 13 00 00 
  1409)    15524.6  Rx      0104  4  1C 03 71 49 
  1410)    15527.6  Rx      0105  8  0B B0 0B BA 0B A6 31 E4 
  1411)    15530.6  Rx      0107  8  0F B1 0F B8 0F B4 48 FA 
  1412)    15533.6  Rx      0108  8  0F BB 0F B7 0F B3 88 13 
  1413)    15536.6  Rx      0109  8  0F BA 0F B6 0F B2 48 BE 
  1414)    15539.6  Rx      010A  8  0F B9 0F B5 0F B1 49 4A 
  1415)    15542.6  Rx      010B  8  0F B8 0F B4 0F BB 4E A6 
  1416)    15545.6  Rx      010C  8  0F B7 0F B3 0F BA 4E 82 
  1417)    15548.6  Rx      010D  8  0F B6 0F B2 0F B9 4F AE 
  1418)    15550.4  Rx      0600  8  0A 66 01 00 00 40 00 00 
  1419)    15551.6  Rx      010E  8  0F B5 0F B1 0F B8 8F DB 
  1420)    15554.6  Rx      010F  8  0F B4 0F BB 0F B7 49 86 
  1421)    15557.3  Rx      0626  8  71 15 FE 7F 53 13 00 00 
  1422)    15557.6  Rx      0110  8  0F B3 00 00 00 00 3E 05 
  1423)    15561.4  Rx      0615  8  2A 00 56 00 00 00 00 00 
  1424)    15569.4  Rx      0610  8  08 00 AB 05 E0 05 C9 00 
  1425)    15591.4  Rx      0626  8  7D 15 FE 7F 4F 13 00 00 
  1426)    15604.4  Rx      0618  8  00 01 00 64 72 13 C9 00 
  1427)    15615.6  Rx  1839F380  8  01 1B 22 1E 08 07 00 AC 
  1428)    15618.4  Rx      0628  8  0D 04 6F 00 20 00 00 00 
  1429)    15625.4  Rx      0626  8  30 15 FE 7F 5A 13 00 00 
  1430)    15652.3  Rx      0600  8  0A 66 01 00 00 40 00 00 
  1431)    15659.3  Rx      0626  8  70 15 FE 7F 74 13 00 00 
  1432)    15670.4  Rx      0610  8  08 00 B3 05 E9 05 CA 00 
  1433)    15693.4  Rx      0626  8  8F 15 FE 7F 6C 13 00 00 
  1434)    15705.3  Rx      0618  8  00 01 00 64 72 13 CA 00 
  1435)    15715.6  Rx  1839F380  8  01 1B 22 1E 08 07 00 AC 
  1436)    15727.4  Rx      0626  8  4F 15 FE 7F 76 13 00 00 
  1437)    15754.4  Rx      0600  8  0A 66 01 00 00 40 00 00 
  1438)    15761.4  Rx      0626  8  5E 15 FE 7F 8E 13 00 00 
  1439)    15766.4  Rx      0615  8  29 00 56 00 00 00 00 00 
  1440)    15771.3  Rx      0610  8  08 00 BB 05 F1 05 CB 00 
  1441)    15795.4  Rx      0626  8  96 15 FE 7F 89 13 00 00 
  1442)    15806.4  Rx      0618  8  00 01 00 64 6E 13 CC 00 
  1443)    15815.6  Rx  1839F380  8  01 1B 22 1E 08 07 00 AC 
  1444)    15829.3  Rx      0626  8  37 15 FE 7F 97 13 00 00 
  1445)    15856.3  Rx      0600  8  0A 66 01 00 00 40 00 00 
  1446)    15863.4  Rx      0626  8  6D 15 FE 7F AC 13 00 00 
  1447)    15872.4  Rx      0610  8  08 00 C4 05 FA 05 CD 00 
  1448)    15897.3  Rx      0626  8  86 15 FE 7F A4 13 00 00 
  1449)    15907.3  Rx      0618  8  00 01 00 64 73 13 CC 00 
  1450)    15915.6  Rx  1839F380  8  01 1B 22 1E 08 07 00 AC 
  1451)    15931.4  Rx      0626  8  33 15 FE 7F AC 13 00 00 
  1452)    15958.4  Rx      0600  8  0A 66 01 00 00 40 00 00 
  1453)    15965.3  Rx      0626  8  67 15 FE 7F C6 13 00 00 
  1454)    15969.4  Rx      0615  8  2A 00 56 00 00 00 00 00 
  1455)    15973.4  Rx      0610  8  08 00 CC 05 03 06 CE 00 
  1456)    15999.4  Rx      0626  8  05 16 FE 7F C3 13 00 00 
  1457)    16008.4  Rx      0618  8  00 01 00 64 6E 13 CE 00 
  1458)    16015.6  Rx  1839F380  8  01 1B 22 1E 08 07 00 AC 
  1459)    16033.4  Rx      0626  8  20 15 FE 7F CC 13 00 00 
  1460)    16060.3  Rx      0600  8  0A 66 01 00 00 40 00 00 
  1461)    16067.4  Rx      0626  8  6B 15 FE 7F DF 13 00 00 
  1462)    16074.4  Rx      0610  8  08 00 D5 05 0B 06 CF 00 
  1463)    16101.4  Rx      0626  8  0D 16 FE 7F EE 13 00 00 
  1464)    16109.4  Rx      0618  8  00 01 00 64 6C 13 CE 00 
  1465)    16115.6  Rx  1839F380  8  01 1B 22 1E 08 07 00 AC 
  1466)    16135.4  Rx      0626  8  81 15 F4 7F E7 13 00 00 
  1467)    16162.4  Rx      0600  8  0A 66 01 00 00 40 00 00 
  1468)    16169.4  Rx      0626  8  41 15 FE 7F FC 13 00 00 
  1469)    16169.5  Rx      0615  8  2A 00 56 00 00 00 00 00 
  1470)    16175.4  Rx      0610  8  08 00 DD 05 14 06 D0 00 
  1471)    16203.4  Rx      0626  8  0A 16 FE 7F 0B 14 00 00 
  1472)    16210.4  Rx      0618  8  00 01 00 64 68 13 CF 00 
  1473)    16215.6  Rx  1839F380  8  01 1B 22 1E 08 07 00 AC 
  1474)    16237.4  Rx      0626  8  7C 15 FE 7F FE 13 00 00 
  1475)    16264.4  Rx      0600  8  0A 66 01 00 10 40 00 00 
  1476)    16271.4  Rx      0626  8  25 15 FE 7F 04 14 00 00 
  1477)    16276.4  Rx      0610  8  08 00 E4 05 1B 06 D1 00 
  1478)    16295.4  Rx      0625  8  00 00 00 00 32 00 00 00 
  1479)    16305.4  Rx      0626  8  62 15 FE 7F 1E 14 00 00 
  1480)    16311.4  Rx      0618  8  00 01 00 64 6D 13 D0 00 
  1481)    16315.6  Rx  1839F380  8  01 1B 22 1E 08 07 00 AC 
  1482)    16339.3  Rx      0626  8  0F 16 FE 7F 2A 14 00 00 
  1483)    16363.4  Rx      0620  8  0E 19 00 00 81 02 00 00 
  1484)    16366.3  Rx      0600  8  0A 66 01 00 00 40 00 00 
  1485)    16367.4  Rx      0615  8  29 00 56 00 00 00 00 00 
  1486)    16373.3  Rx      0626  8  6C 15 FE 7F 1E 14 00 00 
  1487)    16375.4  Rx      0628  8  10 04 6F 00 20 00 00 00 
  1488)    16377.4  Rx      0610  8  08 00 EB 05 23 06 D2 00 
  1489)    16388.1  Rx      0037  3  00 00 00 
  1490)    16388.6  Rx      0030  8  07 40 00 04 00 00 00 3A 
  1491)    16407.4  Rx      0626  8  37 15 FE 7F 33 14 00 00 
  1492)    16412.4  Rx      0618  8  00 01 00 64 63 13 D5 00 
  1493)    16415.6  Rx  1839F380  8  01 1B 22 1E 08 07 00 AC 
  1494)    16441.4  Rx      0626  8  76 15 FE 7F 3C 14 00 00 
  1495)    16468.4  Rx      0600  8  0A 66 01 00 00 40 00 00 
  1496)    16475.4  Rx      0626  8  8E 15 FE 7F 36 14 00 00 
  1497)    16478.4  Rx      0610  8  08 00 F2 05 2A 06 D3 00 
  1498)    16509.3  Rx      0626  8  2C 15 FE 7F 3C 14 00 00 
  1499)    16513.4  Rx      0618  8  00 01 00 64 68 13 D5 00 
  1500)    16515.6  Rx  1839F380  8  01 1B 22 1E 08 07 00 AC 
  1501)    16515.6  Rx      0100  8  2B FE FD 43 12 5C 35 E3 
  1502)    16518.6  Rx      0101  8  13 88 00 17 00 5E 5B D3 
  1503)    16521.6  Rx      0102  8  00 00 00 00 02 00 7B 01 
  1504)    16524.6  Rx      0104  4  1C 03 71 49 
  1505)    16527.6  Rx      0105  8  0B B0 0B BA 0B A6 31 E4 
  1506)    16530.6  Rx      0107  8  0F B1 0F B8 0F B4 48 FA 
  1507)    16533.6  Rx      0108  8  0F BB 0F B7 0F B3 88 13 
  1508)    16536.6  Rx      0109  8  0F BA 0F B6 0F B2 48 BE 
  1509)    16539.6  Rx      010A  8  0F B9 0F B5 0F B1 49 4A 
  1510)    16542.6  Rx      010B  8  0F B8 0F B4 0F BB 4E A6 
  1511)    16543.3  Rx      0626  8  4F 15 FE 7F 51 14 00 00 
  1512)    16545.6  Rx      010C  8  0F B7 0F B3 0F BA 4E 82 
  1513)    16548.6  Rx      010D  8  0F B6 0F B2 0F B9 4F AE 
  1514)    16551.6  Rx      010E  8  0F B5 0F B1 0F B8 8F DB 
  1515)    16554.6  Rx      010F  8  0F B4 0F BB 0F B7 49 86 
  1516)    16557.6  Rx      0110  8  0F B3 00 00 00 00 3E 05 
  1517)    16564.4  Rx      0615  8  2A 00 56 00 00 00 00 00 
  1518)    16570.3  Rx      0600  8  0A 66 01 00 00 40 00 00 
  1519)    16577.3  Rx      0626  8  0C 16 FE 7F 5B 14 00 00 
  1520)    16579.4  Rx      0610  8  08 00 F8 05 30 06 D4 00 
  1521)    16611.4  Rx      0626  8  78 15 FE 7F 50 14 00 00 
  1522)    16614.4  Rx      0618  8  00 01 00 64 69 13 DB 00 
  1523)    16615.6  Rx  1839F380  8  01 1B 22 1E 08 07 00 AC 
  1524)    16645.3  Rx      0626  8  3A 15 FE 7F 56 14 00 00 
  1525)    16672.3  Rx      0600  8  0A 66 01 00 00 40 00 00 
  1526)    16679.4  Rx      0626  8  5A 15 FE 7F 6B 14 00 00 
  1527)    16680.3  Rx      0610  8  08 00 FE 05 36 06 D4 00 
  1528)    16713.4  Rx      0626  8  DE 15 FE 7F 75 14 00 00 
  1529)    16715.4  Rx      0618  8  00 01 00 64 76 13 D3 00 
  1530)    16715.6  Rx  1839F380  8  01 1B 22 1E 08 07 00 AC 
  1531)    16747.4  Rx      0626  8  98 15 F6 7F 6B 14 00 00 
  1532)    16759.4  Rx      0615  8  29 00 56 00 00 00 00 00 
  1533)    16774.4  Rx      0600  8  0A 66 01 00 00 40 00 00 
  1534)    16781.4  Rx      0610  8  08 00 04 06 3C 06 D5 00 
  1535)    16781.5  Rx      0626  8  32 15 FE 7F 6C 14 00 00 
  1536)    16815.4  Rx      0626  8  55 15 FE 7F 83 14 00 00 
  1537)    16815.6  Rx  1839F380  8  01 1B 22 1E 08 07 00 AC 
  1538)    16816.3  Rx      0618  8  00 01 00 64 70 13 D5 00 
  1539)    16849.4  Rx      0626  8  F1 15 FE 7F 8B 14 00 00 
  1540)    16876.4  Rx      0600  8  0A 66 01 00 00 40 00 00 
  1541)    16882.4  Rx      0610  8  08 00 09 06 42 06 D6 00 
  1542)    16883.3  Rx      0626  8  5B 15 FE 7F 7C 14 00 00 
  1543)    16915.6  Rx  1839F380  8  01 1B 22 1E 08 07 00 AC 
  1544)    16917.3  Rx      0618  8  00 01 00 64 76 13 D4 00 
  1545)    16917.4  Rx      0626  8  26 15 FE 7F 89 14 00 00 
  1546)    16951.3  Rx      0626  8  5D 15 FE 7F 99 14 00 00 
  1547)    16954.4  Rx      0615  8  2A 00 56 00 00 00 00 00 
  1548)    16978.4  Rx      0600  8  0A 66 01 00 10 40 00 00 
  1549)    16983.3  Rx      0610  8  08 00 0E 06 46 06 D7 00 
  1550)    16985.4  Rx      0626  8  09 16 FE 7F AA 14 00 00 
  1551)    17015.6  Rx  1839F380  8  01 1B 22 1E 08 07 00 AC 
  1552)    17018.4  Rx      0618  8  00 01 00 64 6B 13 D9 00 
  1553)    17019.4  Rx      0626  8  8B 15 F2 7F 99 14 00 00 
  1554)    17053.3  Rx      0626  8  1D 15 FE 7F A0 14 00 00 
  1555)    17080.4  Rx      0600  8  0A 66 01 00 00 40 00 00 
  1556)    17084.4  Rx      0610  8  08 00 13 06 4C 06 D7 00 
  1557)    17087.3  Rx      0626  8  60 15 FE 7F B0 14 00 00 
  1558)    17115.6  Rx  1839F380  8  01 1B 22 1E 08 07 00 AC 
  1559)    17119.4  Rx      0618  8  00 01 00 64 6F 13 DE 00 
  1560)    17121.4  Rx      0626  8  EF 15 FE 7F BC 14 00 00 
  1561)    17132.3  Rx      0628  8  0A 04 6F 00 20 00 00 00 
  1562)    17146.4  Rx      0615  8  2A 00 56 00 00 00 00 00 
  1563)    17155.4  Rx      0626  8  00 16 FE 7F B3 14 00 00 
  1564)    17182.4  Rx      0600  8  0A 66 01 00 00 40 00 00 
  1565)    17184.4  Rx      0625  8  00 00 00 00 32 00 00 00 
  1566)    17185.4  Rx      0610  8  08 00 19 06 52 06 D8 00 
  1567)    17189.4  Rx      0626  8  90 15 86 7F B8 14 00 00 
  1568)    17215.6  Rx  1839F380  8  01 1B 22 1E 08 07 00 AC 
  1569)    17220.3  Rx      0618  8  00 01 00 64 77 13 D8 00 
  1570)    17223.4  Rx      0626  8  18 15 FE 7F BE 14 00 00 
  1571)    17257.4  Rx      0626  8  5F 15 FE 7F D1 14 00 00 
  1572)    17284.4  Rx      0600  8  0A 66 01 00 00 40 00 00 
  1573)    17286.4  Rx      0610  8  08 00 1E 06 57 06 D9 00 
  1574)    17291.4  Rx      0626  8  EF 15 FE 7F DD 14 00 00 
  1575)    17315.6  Rx  1839F380  8  01 1B 22 1E 08 07 00 AC 
  1576)    17321.4  Rx      0618  8  00 01 00 64 68 13 D7 00 
  1577)    17325.4  Rx      0626  8  8A 15 FE 7F D1 14 00 00 
  1578)    17337.4  Rx      0615  8  29 00 56 00 00 00 00 00 
  1579)    17359.3  Rx      0626  8  2A 15 FE 7F D7 14 00 00 
  1580)    17364.4  Rx      0620  8  0E 19 00 00 81 02 00 00 
  1581)    17386.4  Rx      0600  8  0A 66 01 00 00 40 00 00 
  1582)    17387.3  Rx      0610  8  08 00 24 06 5D 06 DA 00 
  1583)    17393.4  Rx      0626  8  64 15 FE 7F EB 14 00 00 
  1584)    17415.6  Rx  1839F380  8  01 1B 22 1E 08 07 00 AC 
  1585)    17422.4  Rx      0618  8  00 01 00 64 64 13 DC 00 
  1586)    17427.4  Rx      0626  8  7F 15 FE 7F F4 14 00 00 
  1587)    17461.4  Rx      0626  8  33 16 FE 7F F0 14 00 00 
  1588)    17488.4  Rx      0600  8  0A 66 01 00 00 40 00 00 
  1589)    17488.5  Rx      0610  8  08 00 29 06 63 06 DA 00 
  1590)    17495.4  Rx      0626  8  80 15 9A 7F F4 14 00 00 
  1591)    17515.6  Rx  1839F380  8  01 1B 22 1E 08 07 00 AC 
  1592)    17515.6  Rx      0100  8  2B D9 FD 86 12 2A E9 46 
  1593)    17518.6  Rx      0101  8  13 88 00 17 00 5D 5A 93 
  1594)    17521.6  Rx      0102  8  00 00 00 00 02 00 7B 01 
  1595)    17523.4  Rx      0618  8  00 01 00 64 69 13 DB 00 
  1596)    17524.6  Rx      0104  4  1C 03 71 49 
  1597)    17527.4  Rx      0615  8  2A 00 56 00 00 00 00 00 
  1598)    17527.6  Rx      0105  8  0B B0 0B BA 0B A6 31 E4 
  1599)    17529.4  Rx      0626  8  11 15 FE 7F F8 14 00 00 
  1600)    17530.6  Rx      0107  8  0F A4 0F AB 0F A7 83 47 
  1601)    17533.6  Rx      0108  8  0F AE 0F AA 0F A6 82 4F 
  1602)    17536.6  Rx      0109  8  0F AD 0F A9 0F A5 83 BB 
  1603)    17539.6  Rx      010A  8  0F AC 0F A8 0F A4 43 16 
  1604)    17542.6  Rx      010B  8  0F AB 0F A7 0F AE 87 13 
  1605)    17545.6  Rx      010C  8  0F AA 0F A6 0F AD 86 3F 
  1606)    17548.6  Rx      010D  8  0F A9 0F A5 0F AC 46 4A 
  1607)    17551.6  Rx      010E  8  0F A8 0F A4 0F AB 84 67 
  1608)    17554.6  Rx      010F  8  0F A7 0F AE 0F AA 47 D2 
  1609)    17557.6  Rx      0110  8  0F A6 00 00 00 00 FD 08 
  1610)    17563.3  Rx      0626  8  58 15 FE 7F 0B 15 00 00 
